!    02.03.2026   10:52:13 
! Ref Plane: 0,000 mm
# MHZ S MA R  50
!
1000,0000     0,98663       -157,53        
1005,0000     0,98684       -158,33        
1010,0000     0,98667       -159,10        
1015,0000     0,98593       -159,88        
1020,0000     0,98514       -160,67        
1025,0000     0,98471       -161,45        
1030,0000     0,98451       -162,24        
1035,0000     0,98428       -163,04        
1040,0000     0,98426       -163,84        
1045,0000     0,9841        -164,63        
1050,0000     0,9837        -165,44        
1055,0000     0,98327       -166,24        
1060,0000     0,983         -167,04        
1065,0000     0,98266       -167,85        
1070,0000     0,98227       -168,66        
1075,0000     0,98199       -169,46        
1080,0000     0,98192       -170,25        
1085,0000     0,98196       -171,10        
1090,0000     0,98216       -171,92        
1095,0000     0,98248       -172,75        
1100,0000     0,98321       -173,55        
1105,0000     0,98385       -174,35        
1110,0000     0,98431       -175,14        
1115,0000     0,9847        -175,89        
1120,0000     0,98505       -176,65        
1125,0000     0,98532       -177,39        
1130,0000     0,98509       -178,15        
1135,0000     0,98499       -178,89        
1140,0000     0,98493       -179,65        
1145,0000     0,98431       179,57         
1150,0000     0,98395       178,82         
1155,0000     0,98337       178,04         
1160,0000     0,98291       177,26         
1165,0000     0,98277       176,48         
1170,0000     0,98262       175,69         
1175,0000     0,98228       174,90         
1180,0000     0,98238       174,12         
1185,0000     0,9822        173,33         
1190,0000     0,98234       172,55         
1195,0000     0,9819        171,74         
1200,0000     0,98173       170,96         
1205,0000     0,98162       170,15         
1210,0000     0,98155       169,34         
1215,0000     0,98144       168,52         
1220,0000     0,98137       167,70         
1225,0000     0,98127       166,89         
1230,0000     0,98163       166,07         
1235,0000     0,98198       165,26         
1240,0000     0,98242       164,47         
1245,0000     0,98297       163,68         
1250,0000     0,98292       162,92         
1255,0000     0,98349       162,14         
1260,0000     0,98341       161,38         
1265,0000     0,98329       160,63         
1270,0000     0,98315       159,86         
1275,0000     0,98299       159,09         
1280,0000     0,98279       158,33         
1285,0000     0,98258       157,56         
1290,0000     0,9825        156,77         
1295,0000     0,98209       156,00         
1300,0000     0,98184       155,22         
1305,0000     0,98177       154,43         
1310,0000     0,98197       153,65         
1315,0000     0,98172       152,85         
1320,0000     0,98173       152,07         
1325,0000     0,98166       151,31         
1330,0000     0,98157       150,50         
1335,0000     0,98148       149,73         
1340,0000     0,9811        148,94         
1345,0000     0,98092       148,15         
1350,0000     0,98048       147,37         
1355,0000     0,98008       146,57         
1360,0000     0,97998       145,76         
1365,0000     0,98013       144,97         
1370,0000     0,98007       144,17         
1375,0000     0,98039       143,38         
1380,0000     0,98094       142,58         
1385,0000     0,9812        141,82         
1390,0000     0,98155       141,03         
1395,0000     0,98153       140,27         
1400,0000     0,98138       139,51         
1405,0000     0,98151       138,75         
1410,0000     0,98108       137,98         
1415,0000     0,98122       137,20         
1420,0000     0,98101       136,41         
1425,0000     0,98083       135,60         
1430,0000     0,98063       134,82         
1435,0000     0,98048       134,03         
1440,0000     0,98025       133,23         
1445,0000     0,98007       132,45         
1450,0000     0,97997       131,66         
1455,0000     0,98002       130,87         
1460,0000     0,9803        130,08         
1465,0000     0,98076       129,31         
1470,0000     0,98046       128,53         
1475,0000     0,98081       127,77         
1480,0000     0,98061       127,00         
1485,0000     0,98056       126,23         
1490,0000     0,98054       125,45         
1495,0000     0,98044       124,67         
1500,0000     0,98281       123,93         
1505,0000     0,98327       123,16         
1510,0000     0,9829        122,38         
1515,0000     0,98225       121,60         
1520,0000     0,9813        120,81         
1525,0000     0,98028       120,06         
1530,0000     0,97996       119,32         
1535,0000     0,98009       118,55         
1540,0000     0,98011       117,75         
1545,0000     0,9803        116,91         
1550,0000     0,98036       116,09         
1555,0000     0,98018       115,27         
1560,0000     0,97972       114,47         
1565,0000     0,9795        113,66         
1570,0000     0,97937       112,87         
1575,0000     0,97958       112,08         
1580,0000     0,98001       111,30         
1585,0000     0,98022       110,54         
1590,0000     0,98074       109,76         
1595,0000     0,98115       108,99         
1600,0000     0,98149       108,19         
1605,0000     0,98162       107,38         
1610,0000     0,98132       106,60         
1615,0000     0,98088       105,83         
1620,0000     0,98073       105,07         
1625,0000     0,9812        104,35         
1630,0000     0,98189       103,60         
1635,0000     0,98285       102,83         
1640,0000     0,98318       102,05         
1645,0000     0,9828        101,27         
1650,0000     0,98222       100,52         
1655,0000     0,98178       99,78          
1660,0000     0,98133       99,03          
1665,0000     0,98118       98,29          
1670,0000     0,98105       97,53          
1675,0000     0,98105       96,75          
1680,0000     0,98084       95,94          
1685,0000     0,98111       95,13          
1690,0000     0,98104       94,33          
1695,0000     0,98075       93,55          
1700,0000     0,9803        92,78          
1705,0000     0,98005       92,01          
1710,0000     0,98012       91,24          
1715,0000     0,98094       90,45          
1720,0000     0,98135       89,67          
1725,0000     0,98172       88,91          
1730,0000     0,98225       88,11          
1735,0000     0,98267       87,33          
1740,0000     0,983         86,54          
1745,0000     0,98305       85,74          
1750,0000     0,98262       84,98          
1755,0000     0,98213       84,22          
1760,0000     0,98231       83,47          
1765,0000     0,98307       82,71          
1770,0000     0,98372       81,93          
1775,0000     0,98386       81,15          
1780,0000     0,9834        80,39          
1785,0000     0,98326       79,61          
1790,0000     0,98315       78,84          
1795,0000     0,98284       78,08          
1800,0000     0,98258       77,32          
1805,0000     0,9825        76,57          
1810,0000     0,98247       75,79          
1815,0000     0,98225       75,01          
1820,0000     0,9823        74,20          
1825,0000     0,98221       73,41          
1830,0000     0,98208       72,64          
1835,0000     0,98205       71,86          
1840,0000     0,98165       71,13          
1845,0000     0,98186       70,35          
1850,0000     0,98202       69,57          
1855,0000     0,98225       68,79          
1860,0000     0,98256       68,00          
1865,0000     0,98279       67,22          
1870,0000     0,98301       66,45          
1875,0000     0,98303       65,67          
1880,0000     0,98329       64,89          
1885,0000     0,98314       64,12          
1890,0000     0,98268       63,36          
1895,0000     0,98287       62,61          
1900,0000     0,98334       61,83          
1905,0000     0,98335       61,08          
1910,0000     0,98363       60,29          
1915,0000     0,98354       59,54          
1920,0000     0,98387       58,77          
1925,0000     0,98363       58,00          
1930,0000     0,98353       57,23          
1935,0000     0,98367       56,45          
1940,0000     0,9833        55,70          
1945,0000     0,98345       54,93          
1950,0000     0,98341       54,13          
1955,0000     0,98329       53,36          
1960,0000     0,98352       52,58          
1965,0000     0,98317       51,81          
1970,0000     0,98338       51,03          
1975,0000     0,98328       50,25          
1980,0000     0,98342       49,49          
1985,0000     0,9836        48,71          
1990,0000     0,98369       47,92          
1995,0000     0,98383       47,15          
2000,0000     0,98399       46,35          
2005,0000     0,98401       45,58          
2010,0000     0,98411       44,80          
2015,0000     0,98443       44,04          
2020,0000     0,98454       43,26          
2025,0000     0,98486       42,49          
2030,0000     0,98506       41,71          
2035,0000     0,9851        40,95          
2040,0000     0,98522       40,18          
2045,0000     0,98542       39,44          
2050,0000     0,98505       38,69          
2055,0000     0,98523       37,92          
2060,0000     0,98552       37,14          
2065,0000     0,98534       36,34          
2070,0000     0,98532       35,56          
2075,0000     0,98535       34,79          
2080,0000     0,98506       34,01          
2085,0000     0,98506       33,23          
2090,0000     0,98535       32,44          
2095,0000     0,98502       31,67          
2100,0000     0,98502       30,87          
2105,0000     0,98503       30,12          
2110,0000     0,98518       29,35          
2115,0000     0,9851        28,60          
2120,0000     0,98548       27,84          
2125,0000     0,98534       27,06          
2130,0000     0,98534       26,29          
2135,0000     0,98513       25,50          
2140,0000     0,98491       24,72          
2145,0000     0,98514       23,93          
2150,0000     0,98496       23,14          
2155,0000     0,98479       22,34          
2160,0000     0,98481       21,56          
2165,0000     0,9848        20,76          
2170,0000     0,98516       19,99          
2175,0000     0,98518       19,20          
2180,0000     0,98557       18,45          
2185,0000     0,98558       17,70          
2190,0000     0,98539       16,97          
2195,0000     0,98579       16,19          
2200,0000     0,98582       15,40          
2205,0000     0,98599       14,59          
2210,0000     0,98601       13,80          
2215,0000     0,98619       13,00          
2220,0000     0,98624       12,21          
2225,0000     0,9863        11,42          
2230,0000     0,98588       10,63          
2235,0000     0,9858        9,86           
2240,0000     0,98563       9,11           
2245,0000     0,98609       8,37           
2250,0000     0,98604       7,60           
2255,0000     0,98606       6,82           
2260,0000     0,98604       6,08           
2265,0000     0,98605       5,29           
2270,0000     0,98621       4,51           
2275,0000     0,98585       3,72           
2280,0000     0,98565       2,93           
2285,0000     0,98557       2,14           
2290,0000     0,98555       1,33           
2295,0000     0,98551       0,52           
2300,0000     0,98558       -0,29          
2305,0000     0,98564       -1,08          
2310,0000     0,98587       -1,86          
2315,0000     0,9861        -2,63          
2320,0000     0,98608       -3,38          
2325,0000     0,98642       -4,13          
2330,0000     0,98622       -4,90          
2335,0000     0,98621       -5,67          
2340,0000     0,98634       -6,47          
2345,0000     0,98641       -7,28          
2350,0000     0,9861        -8,09          
2355,0000     0,98616       -8,90          
2360,0000     0,98628       -9,72          
2365,0000     0,98573       -10,49         
2370,0000     0,98557       -11,26         
2375,0000     0,98551       -12,02         
2380,0000     0,98573       -12,76         
2385,0000     0,98577       -13,51         
2390,0000     0,98592       -14,28         
2395,0000     0,98593       -15,06         
2400,0000     0,98596       -15,83         
2405,0000     0,98607       -16,62         
2410,0000     0,98595       -17,39         
2415,0000     0,98559       -18,18         
2420,0000     0,98517       -18,96         
2425,0000     0,98501       -19,75         
2430,0000     0,98485       -20,54         
2435,0000     0,98491       -21,34         
2440,0000     0,9851        -22,16         
2445,0000     0,98517       -22,96         
2450,0000     0,98504       -23,74         
2455,0000     0,9849        -24,51         
2460,0000     0,98517       -25,27         
2465,0000     0,98525       -26,03         
2470,0000     0,98532       -26,78         
2475,0000     0,98547       -27,54         
2480,0000     0,98561       -28,35         
2485,0000     0,98535       -29,17         
2490,0000     0,98503       -30,00         
2495,0000     0,98482       -30,81         
2500,0000     0,9846        -31,62         
2505,0000     0,98469       -32,40         
2510,0000     0,98453       -33,15         
2515,0000     0,98481       -33,91         
2520,0000     0,98486       -34,67         
2525,0000     0,98529       -35,44         
2530,0000     0,9853        -36,23         
2535,0000     0,98534       -37,05         
2540,0000     0,98531       -37,84         
2545,0000     0,98546       -38,62         
2550,0000     0,98541       -39,39         
2555,0000     0,98525       -40,16         
2560,0000     0,98524       -40,94         
2565,0000     0,9849        -41,74         
2570,0000     0,98469       -42,55         
2575,0000     0,98475       -43,37         
2580,0000     0,98471       -44,17         
2585,0000     0,98464       -44,98         
2590,0000     0,9845        -45,78         
2595,0000     0,98478       -46,57         
2600,0000     0,98469       -47,33         
2605,0000     0,98503       -48,11         
2610,0000     0,98514       -48,89         
2615,0000     0,98568       -49,70         
2620,0000     0,9851        -50,50         
2625,0000     0,98475       -51,34         
2630,0000     0,98427       -52,19         
2635,0000     0,9836        -53,02         
2640,0000     0,98315       -53,82         
2645,0000     0,98319       -54,62         
2650,0000     0,98321       -55,40         
2655,0000     0,98349       -56,18         
2660,0000     0,98375       -56,95         
2665,0000     0,9842        -57,77         
2670,0000     0,98406       -58,58         
2675,0000     0,98437       -59,41         
2680,0000     0,98447       -60,21         
2685,0000     0,98475       -60,97         
2690,0000     0,98466       -61,75         
2695,0000     0,98443       -62,49         
2700,0000     0,98459       -63,27         
2705,0000     0,98433       -64,08         
2710,0000     0,98434       -64,89         
2715,0000     0,98374       -65,70         
2720,0000     0,98369       -66,50         
2725,0000     0,98325       -67,28         
2730,0000     0,98282       -68,06         
2735,0000     0,98305       -68,81         
2740,0000     0,98347       -69,60         
2745,0000     0,98383       -70,37         
2750,0000     0,98417       -71,15         
2755,0000     0,98434       -71,97         
2760,0000     0,98361       -72,81         
2765,0000     0,98291       -73,63         
2770,0000     0,98213       -74,45         
2775,0000     0,98171       -75,26         
2780,0000     0,98154       -76,05         
2785,0000     0,98086       -76,81         
2790,0000     0,98131       -77,59         
2795,0000     0,9815        -78,39         
2800,0000     0,98208       -79,22         
2805,0000     0,98209       -80,08         
2810,0000     0,98203       -80,91         
2815,0000     0,98217       -81,71         
2820,0000     0,98272       -82,48         
2825,0000     0,98239       -83,25         
2830,0000     0,98274       -84,01         
2835,0000     0,98314       -84,79         
2840,0000     0,98316       -85,58         
2845,0000     0,98316       -86,38         
2850,0000     0,98267       -87,19         
2855,0000     0,9826        -88,00         
2860,0000     0,98207       -88,78         
2865,0000     0,98166       -89,55         
2870,0000     0,98154       -90,32         
2875,0000     0,98172       -91,08         
2880,0000     0,98225       -91,89         
2885,0000     0,98263       -92,70         
2890,0000     0,98254       -93,51         
2895,0000     0,98196       -94,32         
2900,0000     0,98139       -95,14         
2905,0000     0,98054       -95,96         
2910,0000     0,97973       -96,78         
2915,0000     0,97926       -97,57         
2920,0000     0,97901       -98,33         
2925,0000     0,97915       -99,11         
2930,0000     0,97908       -99,93         
2935,0000     0,97914       -100,76        
2940,0000     0,97915       -101,59        
2945,0000     0,97905       -102,44        
2950,0000     0,9794        -103,27        
2955,0000     0,97934       -104,09        
2960,0000     0,97921       -104,87        
2965,0000     0,97957       -105,63        
2970,0000     0,98009       -106,38        
2975,0000     0,98038       -107,17        
2980,0000     0,98062       -107,97        
2985,0000     0,98061       -108,77        
2990,0000     0,98036       -109,56        
2995,0000     0,97991       -110,38        
3000,0000     0,97947       -111,17        
