!    02.03.2026   10:56:14 
! Ref Plane: 0,000 mm
# MHZ S MA R  50
!
1000,0000     0,97889       125,57         
1005,0000     0,97882       124,43         
1010,0000     0,97869       123,28         
1015,0000     0,97865       122,13         
1020,0000     0,97845       120,96         
1025,0000     0,97841       119,81         
1030,0000     0,97831       118,63         
1035,0000     0,97799       117,47         
1040,0000     0,97785       116,29         
1045,0000     0,97781       115,13         
1050,0000     0,9776        113,95         
1055,0000     0,9774        112,80         
1060,0000     0,97733       111,63         
1065,0000     0,97733       110,46         
1070,0000     0,97728       109,28         
1075,0000     0,97769       108,10         
1080,0000     0,97756       106,95         
1085,0000     0,97781       105,77         
1090,0000     0,9781        104,62         
1095,0000     0,97819       103,48         
1100,0000     0,97827       102,31         
1105,0000     0,97836       101,16         
1110,0000     0,97869       100,02         
1115,0000     0,97861       98,87          
1120,0000     0,97867       97,73          
1125,0000     0,97874       96,59          
1130,0000     0,97875       95,45          
1135,0000     0,9788        94,32          
1140,0000     0,9788        93,16          
1145,0000     0,97863       92,02          
1150,0000     0,97876       90,89          
1155,0000     0,97886       89,72          
1160,0000     0,97879       88,56          
1165,0000     0,97883       87,42          
1170,0000     0,9787        86,25          
1175,0000     0,9787        85,08          
1180,0000     0,97875       83,91          
1185,0000     0,97881       82,74          
1190,0000     0,9789        81,57          
1195,0000     0,97901       80,39          
1200,0000     0,97929       79,22          
1205,0000     0,97947       78,05          
1210,0000     0,97963       76,90          
1215,0000     0,97985       75,74          
1220,0000     0,9797        74,59          
1225,0000     0,97954       73,44          
1230,0000     0,97955       72,27          
1235,0000     0,97964       71,10          
1240,0000     0,97983       69,93          
1245,0000     0,98013       68,78          
1250,0000     0,98017       67,64          
1255,0000     0,9805        66,47          
1260,0000     0,98081       65,33          
1265,0000     0,98076       64,19          
1270,0000     0,98081       63,04          
1275,0000     0,98074       61,88          
1280,0000     0,98074       60,73          
1285,0000     0,98068       59,56          
1290,0000     0,98057       58,43          
1295,0000     0,98045       57,26          
1300,0000     0,97998       56,11          
1305,0000     0,97992       54,94          
1310,0000     0,97943       53,77          
1315,0000     0,97955       52,60          
1320,0000     0,97947       51,44          
1325,0000     0,97943       50,28          
1330,0000     0,97941       49,12          
1335,0000     0,97981       47,96          
1340,0000     0,97966       46,81          
1345,0000     0,97988       45,64          
1350,0000     0,98001       44,51          
1355,0000     0,97982       43,37          
1360,0000     0,97947       42,21          
1365,0000     0,97978       41,06          
1370,0000     0,97931       39,92          
1375,0000     0,97954       38,74          
1380,0000     0,97916       37,57          
1385,0000     0,97965       36,40          
1390,0000     0,97975       35,23          
1395,0000     0,98009       34,06          
1400,0000     0,9803        32,91          
1405,0000     0,98036       31,76          
1410,0000     0,98042       30,62          
1415,0000     0,98053       29,46          
1420,0000     0,98053       28,31          
1425,0000     0,98052       27,18          
1430,0000     0,98032       26,02          
1435,0000     0,98036       24,88          
1440,0000     0,98022       23,73          
1445,0000     0,98054       22,59          
1450,0000     0,98068       21,43          
1455,0000     0,98078       20,28          
1460,0000     0,98098       19,12          
1465,0000     0,98115       17,96          
1470,0000     0,98182       16,81          
1475,0000     0,98212       15,67          
1480,0000     0,98201       14,53          
1485,0000     0,98212       13,38          
1490,0000     0,98199       12,25          
1495,0000     0,98189       11,09          
1500,0000     0,98092       9,79           
1505,0000     0,98142       8,58           
1510,0000     0,98157       7,38           
1515,0000     0,98132       6,21           
1520,0000     0,98096       5,08           
1525,0000     0,98149       3,97           
1530,0000     0,98253       2,85           
1535,0000     0,98358       1,68           
1540,0000     0,98404       0,53           
1545,0000     0,98427       -0,67          
1550,0000     0,98401       -1,83          
1555,0000     0,98379       -2,98          
1560,0000     0,98378       -4,12          
1565,0000     0,98356       -5,23          
1570,0000     0,98351       -6,36          
1575,0000     0,98399       -7,49          
1580,0000     0,9845        -8,63          
1585,0000     0,98499       -9,80          
1590,0000     0,98459       -10,98         
1595,0000     0,98381       -12,15         
1600,0000     0,98272       -13,30         
1605,0000     0,98137       -14,47         
1610,0000     0,98086       -15,61         
1615,0000     0,98082       -16,74         
1620,0000     0,98077       -17,91         
1625,0000     0,98095       -19,12         
1630,0000     0,98124       -20,34         
1635,0000     0,98127       -21,59         
1640,0000     0,98131       -22,81         
1645,0000     0,98104       -23,98         
1650,0000     0,98083       -25,14         
1655,0000     0,98067       -26,26         
1660,0000     0,98149       -27,38         
1665,0000     0,98249       -28,53         
1670,0000     0,98345       -29,71         
1675,0000     0,98377       -30,90         
1680,0000     0,98384       -32,08         
1685,0000     0,98355       -33,29         
1690,0000     0,9834        -34,47         
1695,0000     0,98303       -35,63         
1700,0000     0,98313       -36,76         
1705,0000     0,98337       -37,90         
1710,0000     0,98443       -39,06         
1715,0000     0,98509       -40,25         
1720,0000     0,98502       -41,44         
1725,0000     0,98423       -42,62         
1730,0000     0,98329       -43,75         
1735,0000     0,98256       -44,88         
1740,0000     0,98161       -46,03         
1745,0000     0,98126       -47,18         
1750,0000     0,98112       -48,36         
1755,0000     0,98135       -49,54         
1760,0000     0,98156       -50,77         
1765,0000     0,98117       -52,02         
1770,0000     0,98059       -53,22         
1775,0000     0,98013       -54,43         
1780,0000     0,97966       -55,59         
1785,0000     0,97954       -56,75         
1790,0000     0,97978       -57,91         
1795,0000     0,98024       -59,09         
1800,0000     0,98143       -60,26         
1805,0000     0,98208       -61,44         
1810,0000     0,98247       -62,65         
1815,0000     0,98261       -63,85         
1820,0000     0,98198       -65,05         
1825,0000     0,98132       -66,22         
1830,0000     0,98057       -67,39         
1835,0000     0,98085       -68,55         
1840,0000     0,98173       -69,71         
1845,0000     0,98272       -70,89         
1850,0000     0,98298       -72,07         
1855,0000     0,98292       -73,26         
1860,0000     0,98209       -74,44         
1865,0000     0,98095       -75,60         
1870,0000     0,98047       -76,73         
1875,0000     0,9802        -77,87         
1880,0000     0,98017       -79,05         
1885,0000     0,98001       -80,25         
1890,0000     0,97956       -81,47         
1895,0000     0,97949       -82,68         
1900,0000     0,97901       -83,90         
1905,0000     0,97878       -85,08         
1910,0000     0,97851       -86,30         
1915,0000     0,97805       -87,47         
1920,0000     0,97771       -88,64         
1925,0000     0,97776       -89,82         
1930,0000     0,9782        -91,01         
1935,0000     0,97867       -92,24         
1940,0000     0,97889       -93,44         
1945,0000     0,97917       -94,63         
1950,0000     0,97909       -95,82         
1955,0000     0,9789        -97,00         
1960,0000     0,97831       -98,20         
1965,0000     0,97779       -99,36         
1970,0000     0,97773       -100,51        
1975,0000     0,97832       -101,72        
1980,0000     0,97945       -102,91        
1985,0000     0,97981       -104,13        
1990,0000     0,97952       -105,29        
1995,0000     0,97887       -106,43        
2000,0000     0,97846       -107,61        
2005,0000     0,97833       -108,78        
2010,0000     0,97809       -109,96        
2015,0000     0,97811       -111,15        
2020,0000     0,97791       -112,33        
2025,0000     0,97776       -113,54        
2030,0000     0,9777        -114,74        
2035,0000     0,97742       -115,94        
2040,0000     0,97718       -117,14        
2045,0000     0,97692       -118,33        
2050,0000     0,97671       -119,51        
2055,0000     0,97625       -120,69        
2060,0000     0,97648       -121,88        
2065,0000     0,97629       -123,08        
2070,0000     0,97647       -124,30        
2075,0000     0,97636       -125,51        
2080,0000     0,97628       -126,72        
2085,0000     0,97642       -127,89        
2090,0000     0,97635       -129,09        
2095,0000     0,97637       -130,27        
2100,0000     0,97591       -131,48        
2105,0000     0,97576       -132,68        
2110,0000     0,97605       -133,87        
2115,0000     0,97658       -135,06        
2120,0000     0,97662       -136,27        
2125,0000     0,97657       -137,42        
2130,0000     0,97663       -138,60        
2135,0000     0,97662       -139,79        
2140,0000     0,97638       -140,94        
2145,0000     0,97615       -142,13        
2150,0000     0,97583       -143,31        
2155,0000     0,97606       -144,48        
2160,0000     0,97579       -145,67        
2165,0000     0,9758        -146,85        
2170,0000     0,97526       -148,02        
2175,0000     0,97492       -149,19        
2180,0000     0,97484       -150,35        
2185,0000     0,9744        -151,54        
2190,0000     0,97416       -152,71        
2195,0000     0,97388       -153,87        
2200,0000     0,97379       -155,06        
2205,0000     0,97373       -156,24        
2210,0000     0,97353       -157,42        
2215,0000     0,9735        -158,61        
2220,0000     0,97363       -159,79        
2225,0000     0,97362       -160,97        
2230,0000     0,97378       -162,15        
2235,0000     0,97392       -163,34        
2240,0000     0,97426       -164,53        
2245,0000     0,97453       -165,71        
2250,0000     0,97454       -166,88        
2255,0000     0,97453       -168,06        
2260,0000     0,97449       -169,22        
2265,0000     0,97475       -170,41        
2270,0000     0,97524       -171,59        
2275,0000     0,9752        -172,78        
2280,0000     0,97515       -173,96        
2285,0000     0,97503       -175,13        
2290,0000     0,97475       -176,29        
2295,0000     0,97493       -177,46        
2300,0000     0,97479       -178,61        
2305,0000     0,9747        -179,77        
2310,0000     0,97478       179,09         
2315,0000     0,97463       177,90         
2320,0000     0,97472       176,72         
2325,0000     0,97424       175,55         
2330,0000     0,9743        174,36         
2335,0000     0,97382       173,20         
2340,0000     0,97373       172,02         
2345,0000     0,97372       170,87         
2350,0000     0,97348       169,70         
2355,0000     0,97358       168,53         
2360,0000     0,9736        167,35         
2365,0000     0,97383       166,14         
2370,0000     0,97395       164,95         
2375,0000     0,97372       163,77         
2380,0000     0,97376       162,62         
2385,0000     0,97406       161,45         
2390,0000     0,97406       160,27         
2395,0000     0,97372       159,12         
2400,0000     0,97353       157,95         
2405,0000     0,97371       156,76         
2410,0000     0,97356       155,59         
2415,0000     0,9733        154,39         
2420,0000     0,97329       153,22         
2425,0000     0,97302       152,04         
2430,0000     0,97306       150,88         
2435,0000     0,97316       149,72         
2440,0000     0,97316       148,59         
2445,0000     0,97328       147,46         
2450,0000     0,9734        146,33         
2455,0000     0,9733        145,17         
2460,0000     0,97303       144,00         
2465,0000     0,97314       142,83         
2470,0000     0,97289       141,64         
2475,0000     0,97265       140,50         
2480,0000     0,97242       139,34         
2485,0000     0,97237       138,21         
2490,0000     0,97266       137,06         
2495,0000     0,97258       135,91         
2500,0000     0,97287       134,74         
2505,0000     0,97283       133,55         
2510,0000     0,97336       132,37         
2515,0000     0,97335       131,21         
2520,0000     0,97354       130,06         
2525,0000     0,97301       128,94         
2530,0000     0,97327       127,79         
2535,0000     0,97368       126,65         
2540,0000     0,97369       125,50         
2545,0000     0,97404       124,34         
2550,0000     0,97378       123,16         
2555,0000     0,97365       121,95         
2560,0000     0,97305       120,76         
2565,0000     0,97329       119,60         
2570,0000     0,97336       118,46         
2575,0000     0,97342       117,34         
2580,0000     0,97378       116,19         
2585,0000     0,9743        115,05         
2590,0000     0,97483       113,88         
2595,0000     0,97486       112,70         
2600,0000     0,97503       111,52         
2605,0000     0,97501       110,35         
2610,0000     0,97502       109,22         
2615,0000     0,97475       108,10         
2620,0000     0,97512       106,98         
2625,0000     0,97502       105,86         
2630,0000     0,97527       104,73         
2635,0000     0,97532       103,56         
2640,0000     0,9756        102,40         
2645,0000     0,97537       101,22         
2650,0000     0,9748        100,07         
2655,0000     0,97462       98,95          
2660,0000     0,97479       97,81          
2665,0000     0,97505       96,68          
2670,0000     0,97522       95,56          
2675,0000     0,97533       94,42          
2680,0000     0,97543       93,25          
2685,0000     0,97505       92,07          
2690,0000     0,97478       90,90          
2695,0000     0,97412       89,72          
2700,0000     0,97367       88,59          
2705,0000     0,97317       87,47          
2710,0000     0,97333       86,32          
2715,0000     0,97406       85,19          
2720,0000     0,97421       84,04          
2725,0000     0,97488       82,88          
2730,0000     0,97574       81,67          
2735,0000     0,97559       80,50          
2740,0000     0,97533       79,33          
2745,0000     0,97507       78,20          
2750,0000     0,97481       77,08          
2755,0000     0,97494       75,94          
2760,0000     0,97565       74,82          
2765,0000     0,97599       73,67          
2770,0000     0,97613       72,52          
2775,0000     0,97636       71,36          
2780,0000     0,97629       70,20          
2785,0000     0,97638       69,06          
2790,0000     0,97603       67,94          
2795,0000     0,97622       66,81          
2800,0000     0,97682       65,69          
2805,0000     0,97758       64,55          
2810,0000     0,97797       63,38          
2815,0000     0,97829       62,24          
2820,0000     0,97745       61,06          
2825,0000     0,97713       59,92          
2830,0000     0,97643       58,76          
2835,0000     0,97563       57,67          
2840,0000     0,97525       56,55          
2845,0000     0,97568       55,40          
2850,0000     0,97596       54,22          
2855,0000     0,97647       53,05          
2860,0000     0,97677       51,85          
2865,0000     0,97685       50,68          
2870,0000     0,97724       49,51          
2875,0000     0,97708       48,36          
2880,0000     0,97642       47,22          
2885,0000     0,97659       46,08          
2890,0000     0,97661       44,95          
2895,0000     0,9771        43,80          
2900,0000     0,97728       42,64          
2905,0000     0,97769       41,48          
2910,0000     0,97771       40,34          
2915,0000     0,97778       39,20          
2920,0000     0,97755       38,04          
2925,0000     0,97751       36,89          
2930,0000     0,97776       35,75          
2935,0000     0,97799       34,61          
2940,0000     0,97829       33,46          
2945,0000     0,97868       32,30          
2950,0000     0,97882       31,14          
2955,0000     0,97876       29,96          
2960,0000     0,97845       28,83          
2965,0000     0,97784       27,70          
2970,0000     0,97753       26,58          
2975,0000     0,97729       25,49          
2980,0000     0,97709       24,35          
2985,0000     0,97729       23,17          
2990,0000     0,97749       22,00          
2995,0000     0,9778        20,84          
3000,0000     0,9778        19,68          
