!    02.03.2026   10:50:04 
! Ref Plane: 0,000 mm
# MHZ S MA R  50
!
1000,0000     0,99656       -80,23         
1005,0000     0,99655       -80,64         
1010,0000     0,99636       -81,02         
1015,0000     0,9963        -81,42         
1020,0000     0,99595       -81,81         
1025,0000     0,99594       -82,22         
1030,0000     0,99584       -82,62         
1035,0000     0,99576       -83,02         
1040,0000     0,99566       -83,42         
1045,0000     0,99545       -83,82         
1050,0000     0,99526       -84,23         
1055,0000     0,99521       -84,63         
1060,0000     0,99509       -85,03         
1065,0000     0,99516       -85,43         
1070,0000     0,99492       -85,84         
1075,0000     0,99477       -86,23         
1080,0000     0,99468       -86,64         
1085,0000     0,99467       -87,06         
1090,0000     0,99463       -87,46         
1095,0000     0,99443       -87,87         
1100,0000     0,99439       -88,27         
1105,0000     0,99441       -88,69         
1110,0000     0,99464       -89,09         
1115,0000     0,99451       -89,49         
1120,0000     0,9945        -89,91         
1125,0000     0,99446       -90,31         
1130,0000     0,99455       -90,73         
1135,0000     0,99454       -91,13         
1140,0000     0,99465       -91,53         
1145,0000     0,99454       -91,93         
1150,0000     0,99464       -92,33         
1155,0000     0,99428       -92,73         
1160,0000     0,9942        -93,13         
1165,0000     0,99422       -93,53         
1170,0000     0,99403       -93,94         
1175,0000     0,99409       -94,33         
1180,0000     0,99402       -94,74         
1185,0000     0,99396       -95,12         
1190,0000     0,9941        -95,52         
1195,0000     0,994         -95,92         
1200,0000     0,99417       -96,31         
1205,0000     0,9942        -96,72         
1210,0000     0,99414       -97,10         
1215,0000     0,99435       -97,51         
1220,0000     0,99411       -97,91         
1225,0000     0,99406       -98,31         
1230,0000     0,99393       -98,70         
1235,0000     0,99389       -99,12         
1240,0000     0,99374       -99,52         
1245,0000     0,99367       -99,94         
1250,0000     0,99318       -100,34        
1255,0000     0,99318       -100,76        
1260,0000     0,99284       -101,17        
1265,0000     0,99281       -101,57        
1270,0000     0,99266       -101,99        
1275,0000     0,99272       -102,39        
1280,0000     0,99247       -102,79        
1285,0000     0,99235       -103,19        
1290,0000     0,99238       -103,60        
1295,0000     0,99195       -103,99        
1300,0000     0,9919        -104,39        
1305,0000     0,99187       -104,78        
1310,0000     0,99169       -105,18        
1315,0000     0,99189       -105,61        
1320,0000     0,99197       -106,00        
1325,0000     0,99201       -106,39        
1330,0000     0,99225       -106,80        
1335,0000     0,99242       -107,20        
1340,0000     0,99254       -107,59        
1345,0000     0,99273       -107,98        
1350,0000     0,9927        -108,38        
1355,0000     0,99289       -108,78        
1360,0000     0,99292       -109,17        
1365,0000     0,99291       -109,57        
1370,0000     0,99294       -109,95        
1375,0000     0,99279       -110,33        
1380,0000     0,99253       -110,72        
1385,0000     0,99231       -111,13        
1390,0000     0,99233       -111,50        
1395,0000     0,99198       -111,90        
1400,0000     0,99174       -112,29        
1405,0000     0,99169       -112,68        
1410,0000     0,99155       -113,09        
1415,0000     0,99147       -113,48        
1420,0000     0,99155       -113,87        
1425,0000     0,99151       -114,27        
1430,0000     0,99118       -114,68        
1435,0000     0,99129       -115,08        
1440,0000     0,99116       -115,50        
1445,0000     0,99109       -115,91        
1450,0000     0,99105       -116,32        
1455,0000     0,99098       -116,74        
1460,0000     0,99104       -117,15        
1465,0000     0,99097       -117,55        
1470,0000     0,99135       -117,99        
1475,0000     0,99156       -118,38        
1480,0000     0,99165       -118,78        
1485,0000     0,99182       -119,18        
1490,0000     0,99176       -119,58        
1495,0000     0,99185       -119,98        
1500,0000     0,99196       -120,38        
1505,0000     0,99198       -120,76        
1510,0000     0,99198       -121,15        
1515,0000     0,99226       -121,54        
1520,0000     0,99219       -121,93        
1525,0000     0,99216       -122,32        
1530,0000     0,9921        -122,69        
1535,0000     0,99234       -123,12        
1540,0000     0,99217       -123,53        
1545,0000     0,99144       -123,94        
1550,0000     0,99111       -124,33        
1555,0000     0,99076       -124,73        
1560,0000     0,99054       -125,16        
1565,0000     0,99073       -125,56        
1570,0000     0,99057       -125,98        
1575,0000     0,99092       -126,40        
1580,0000     0,99088       -126,82        
1585,0000     0,99062       -127,26        
1590,0000     0,99051       -127,69        
1595,0000     0,99027       -128,10        
1600,0000     0,99015       -128,49        
1605,0000     0,99003       -128,87        
1610,0000     0,98994       -129,26        
1615,0000     0,9902        -129,69        
1620,0000     0,99046       -130,11        
1625,0000     0,99052       -130,51        
1630,0000     0,99051       -130,92        
1635,0000     0,99036       -131,30        
1640,0000     0,99073       -131,69        
1645,0000     0,99061       -132,09        
1650,0000     0,99072       -132,48        
1655,0000     0,99052       -132,87        
1660,0000     0,99067       -133,26        
1665,0000     0,99069       -133,64        
1670,0000     0,99123       -134,06        
1675,0000     0,99094       -134,48        
1680,0000     0,9908        -134,88        
1685,0000     0,99033       -135,27        
1690,0000     0,98986       -135,65        
1695,0000     0,98933       -136,06        
1700,0000     0,98922       -136,47        
1705,0000     0,98913       -136,87        
1710,0000     0,98917       -137,30        
1715,0000     0,98962       -137,72        
1720,0000     0,98922       -138,13        
1725,0000     0,98899       -138,58        
1730,0000     0,98886       -138,98        
1735,0000     0,98899       -139,37        
1740,0000     0,98903       -139,75        
1745,0000     0,98945       -140,14        
1750,0000     0,98938       -140,53        
1755,0000     0,98952       -140,94        
1760,0000     0,9897        -141,37        
1765,0000     0,98991       -141,77        
1770,0000     0,99032       -142,17        
1775,0000     0,99041       -142,57        
1780,0000     0,99045       -142,96        
1785,0000     0,99032       -143,36        
1790,0000     0,99025       -143,75        
1795,0000     0,99055       -144,15        
1800,0000     0,99058       -144,56        
1805,0000     0,99061       -144,95        
1810,0000     0,99102       -145,33        
1815,0000     0,99072       -145,76        
1820,0000     0,99089       -146,16        
1825,0000     0,99041       -146,55        
1830,0000     0,98982       -146,94        
1835,0000     0,98926       -147,33        
1840,0000     0,98922       -147,74        
1845,0000     0,98919       -148,15        
1850,0000     0,98894       -148,55        
1855,0000     0,98886       -148,97        
1860,0000     0,98867       -149,41        
1865,0000     0,98818       -149,83        
1870,0000     0,9882        -150,23        
1875,0000     0,98822       -150,62        
1880,0000     0,98842       -151,00        
1885,0000     0,98864       -151,39        
1890,0000     0,9885        -151,79        
1895,0000     0,98853       -152,20        
1900,0000     0,98866       -152,61        
1905,0000     0,98892       -153,04        
1910,0000     0,98892       -153,46        
1915,0000     0,98871       -153,86        
1920,0000     0,98863       -154,23        
1925,0000     0,98846       -154,61        
1930,0000     0,98855       -155,01        
1935,0000     0,98858       -155,42        
1940,0000     0,9886        -155,82        
1945,0000     0,98861       -156,22        
1950,0000     0,98884       -156,62        
1955,0000     0,98917       -157,03        
1960,0000     0,98915       -157,44        
1965,0000     0,9888        -157,83        
1970,0000     0,98809       -158,18        
1975,0000     0,988         -158,57        
1980,0000     0,98834       -158,99        
1985,0000     0,98821       -159,41        
1990,0000     0,98861       -159,84        
1995,0000     0,9882        -160,24        
2000,0000     0,98817       -160,64        
2005,0000     0,98817       -161,05        
2010,0000     0,9882        -161,47        
2015,0000     0,988         -161,84        
2020,0000     0,9883        -162,25        
2025,0000     0,98851       -162,65        
2030,0000     0,98859       -163,04        
2035,0000     0,98877       -163,46        
2040,0000     0,98835       -163,87        
2045,0000     0,98862       -164,28        
2050,0000     0,98837       -164,70        
2055,0000     0,98832       -165,09        
2060,0000     0,98836       -165,48        
2065,0000     0,98851       -165,87        
2070,0000     0,98839       -166,28        
2075,0000     0,98835       -166,67        
2080,0000     0,98846       -167,09        
2085,0000     0,98848       -167,49        
2090,0000     0,98876       -167,91        
2095,0000     0,9889        -168,32        
2100,0000     0,98897       -168,73        
2105,0000     0,98851       -169,12        
2110,0000     0,9882        -169,48        
2115,0000     0,9882        -169,86        
2120,0000     0,98802       -170,31        
2125,0000     0,98808       -170,71        
2130,0000     0,98783       -171,12        
2135,0000     0,988         -171,52        
2140,0000     0,98798       -171,92        
2145,0000     0,98789       -172,33        
2150,0000     0,98782       -172,73        
2155,0000     0,98784       -173,13        
2160,0000     0,98761       -173,50        
2165,0000     0,98782       -173,86        
2170,0000     0,98775       -174,26        
2175,0000     0,98765       -174,66        
2180,0000     0,98775       -175,06        
2185,0000     0,98751       -175,43        
2190,0000     0,98699       -175,85        
2195,0000     0,98694       -176,24        
2200,0000     0,98699       -176,62        
2205,0000     0,98689       -177,01        
2210,0000     0,98702       -177,39        
2215,0000     0,98694       -177,79        
2220,0000     0,98727       -178,20        
2225,0000     0,98748       -178,61        
2230,0000     0,98758       -179,02        
2235,0000     0,98795       -179,42        
2240,0000     0,98824       -179,81        
2245,0000     0,98849       179,80         
2250,0000     0,98816       179,42         
2255,0000     0,98816       179,02         
2260,0000     0,98796       178,63         
2265,0000     0,9884        178,21         
2270,0000     0,98863       177,80         
2275,0000     0,98872       177,38         
2280,0000     0,98851       176,97         
2285,0000     0,98852       176,57         
2290,0000     0,98834       176,19         
2295,0000     0,98847       175,78         
2300,0000     0,98846       175,43         
2305,0000     0,98847       175,05         
2310,0000     0,98836       174,67         
2315,0000     0,98854       174,28         
2320,0000     0,98861       173,86         
2325,0000     0,98829       173,45         
2330,0000     0,98822       173,05         
2335,0000     0,98788       172,65         
2340,0000     0,98784       172,26         
2345,0000     0,98769       171,87         
2350,0000     0,9876        171,48         
2355,0000     0,98775       171,08         
2360,0000     0,98757       170,67         
2365,0000     0,98776       170,24         
2370,0000     0,98776       169,83         
2375,0000     0,9876        169,42         
2380,0000     0,98765       169,02         
2385,0000     0,98792       168,63         
2390,0000     0,98795       168,22         
2395,0000     0,98784       167,81         
2400,0000     0,98754       167,42         
2405,0000     0,98748       167,00         
2410,0000     0,98761       166,59         
2415,0000     0,98739       166,17         
2420,0000     0,98742       165,75         
2425,0000     0,98761       165,35         
2430,0000     0,98724       164,95         
2435,0000     0,98737       164,56         
2440,0000     0,98736       164,17         
2445,0000     0,98724       163,80         
2450,0000     0,98726       163,44         
2455,0000     0,98712       163,05         
2460,0000     0,98678       162,66         
2465,0000     0,98676       162,25         
2470,0000     0,98681       161,83         
2475,0000     0,98674       161,44         
2480,0000     0,98655       161,04         
2485,0000     0,98643       160,67         
2490,0000     0,98652       160,28         
2495,0000     0,98635       159,91         
2500,0000     0,98632       159,49         
2505,0000     0,98621       159,09         
2510,0000     0,98668       158,68         
2515,0000     0,98681       158,26         
2520,0000     0,98684       157,86         
2525,0000     0,98671       157,47         
2530,0000     0,98647       157,07         
2535,0000     0,98683       156,69         
2540,0000     0,98699       156,29         
2545,0000     0,9871        155,91         
2550,0000     0,98715       155,48         
2555,0000     0,98717       155,07         
2560,0000     0,98695       154,64         
2565,0000     0,9871        154,24         
2570,0000     0,98719       153,81         
2575,0000     0,98713       153,41         
2580,0000     0,98695       153,02         
2585,0000     0,98741       152,65         
2590,0000     0,98744       152,25         
2595,0000     0,98748       151,86         
2600,0000     0,98754       151,46         
2605,0000     0,98759       151,03         
2610,0000     0,9876        150,61         
2615,0000     0,98773       150,20         
2620,0000     0,98784       149,81         
2625,0000     0,98772       149,45         
2630,0000     0,9875        149,08         
2635,0000     0,98737       148,70         
2640,0000     0,98757       148,30         
2645,0000     0,98714       147,88         
2650,0000     0,98688       147,48         
2655,0000     0,98688       147,08         
2660,0000     0,98692       146,67         
2665,0000     0,98677       146,28         
2670,0000     0,98669       145,90         
2675,0000     0,98636       145,52         
2680,0000     0,98645       145,13         
2685,0000     0,98644       144,72         
2690,0000     0,9867        144,32         
2695,0000     0,98674       143,90         
2700,0000     0,98669       143,50         
2705,0000     0,98651       143,09         
2710,0000     0,98626       142,67         
2715,0000     0,98633       142,25         
2720,0000     0,98605       141,89         
2725,0000     0,98651       141,53         
2730,0000     0,98687       141,14         
2735,0000     0,98709       140,74         
2740,0000     0,98733       140,32         
2745,0000     0,98725       139,90         
2750,0000     0,98746       139,50         
2755,0000     0,98742       139,09         
2760,0000     0,98764       138,72         
2765,0000     0,98777       138,34         
2770,0000     0,98747       137,99         
2775,0000     0,98747       137,62         
2780,0000     0,98759       137,21         
2785,0000     0,98763       136,82         
2790,0000     0,9874        136,41         
2795,0000     0,98742       136,02         
2800,0000     0,98733       135,63         
2805,0000     0,98731       135,24         
2810,0000     0,98737       134,86         
2815,0000     0,98726       134,49         
2820,0000     0,98693       134,10         
2825,0000     0,98707       133,69         
2830,0000     0,98723       133,26         
2835,0000     0,98682       132,84         
2840,0000     0,98668       132,43         
2845,0000     0,98649       132,01         
2850,0000     0,98674       131,60         
2855,0000     0,98662       131,19         
2860,0000     0,98635       130,78         
2865,0000     0,98662       130,44         
2870,0000     0,98709       130,05         
2875,0000     0,98735       129,64         
2880,0000     0,98732       129,18         
2885,0000     0,98771       128,76         
2890,0000     0,9875        128,37         
2895,0000     0,98776       127,97         
2900,0000     0,98795       127,58         
2905,0000     0,98821       127,21         
2910,0000     0,98802       126,85         
2915,0000     0,98821       126,51         
2920,0000     0,98829       126,11         
2925,0000     0,9886        125,70         
2930,0000     0,98866       125,32         
2935,0000     0,98836       124,92         
2940,0000     0,98809       124,54         
2945,0000     0,98798       124,17         
2950,0000     0,98772       123,81         
2955,0000     0,98781       123,41         
2960,0000     0,98764       123,03         
2965,0000     0,98751       122,63         
2970,0000     0,98741       122,22         
2975,0000     0,98719       121,80         
2980,0000     0,98689       121,38         
2985,0000     0,98678       120,98         
2990,0000     0,98656       120,59         
2995,0000     0,98643       120,19         
3000,0000     0,9864        119,80         
