#  HZ   S   RI   R     50.00 
! Rohde & Schwarz ZVA50 2Ports - Version 3.90 - 1145.1110k50 SN: 100234
! Date: 2026-03-02 11:06:07
! Measurements: S11 S21 S12 S22 
! 
 1.000000000000000E9    -4.059516460082107E-1  -4.644492569912769E-1  -1.888135864495814E-4  -1.286992553862906E-4   0.000000000000000   0.000000000000000   0.000000000000000   0.000000000000000  
 1.007500000000000E9     5.951019791016926E-1  -1.620187236142442E-1  -2.679352666671273E-4   4.884584623545844E-5   0.000000000000000   0.000000000000000   0.000000000000000   0.000000000000000  
 1.015000000000000E9    -1.657328269331675E-1   5.649907911221118E-1  -1.334823172438734E-4   1.775043066392851E-4   0.000000000000000   0.000000000000000   0.000000000000000   0.000000000000000  
 1.022500000000000E9    -3.533452991458599E-1  -5.195061325079921E-1   8.582403286948709E-5   2.058319931202945E-4   0.000000000000000   0.000000000000000   0.000000000000000   0.000000000000000  
 1.030000000000000E9     6.124542592700595E-1   5.495321750709012E-3   2.305696617798147E-4   8.457333189711632E-5   0.000000000000000   0.000000000000000   0.000000000000000   0.000000000000000  
 1.037500000000000E9    -3.575999659437151E-1   4.675671981612952E-1   1.941413075159048E-4  -8.457547044307659E-5   0.000000000000000   0.000000000000000   0.000000000000000   0.000000000000000  
 1.045000000000000E9    -2.499451518628165E-1  -5.723554225782738E-1   3.995119908386285E-5  -1.805742839847966E-4   0.000000000000000   0.000000000000000   0.000000000000000   0.000000000000000  
 1.052500000000000E9     5.918923789726773E-1   1.510223697797487E-1  -1.098601401767628E-4  -1.490407959027266E-4   0.000000000000000   0.000000000000000   0.000000000000000   0.000000000000000  
 1.060000000000000E9    -5.063134794704154E-1   3.417941422353343E-1  -1.313242129105331E-4  -7.417971916012271E-5   0.000000000000000   0.000000000000000   0.000000000000000   0.000000000000000  
 1.067500000000000E9    -5.535029563272161E-2  -6.061409362355009E-1  -1.719301052807943E-4   4.228231925684656E-5   0.000000000000000   0.000000000000000   0.000000000000000   0.000000000000000  
 1.075000000000000E9     5.326817195269509E-1   2.919462937441896E-1  -8.915228175028249E-5   1.695699444246602E-4   0.000000000000000   0.000000000000000   0.000000000000000   0.000000000000000  
 1.082500000000000E9    -5.599924871118479E-1   2.499086241212955E-1   3.633482124481342E-5   2.075278224349394E-4   0.000000000000000   0.000000000000000   0.000000000000000   0.000000000000000  
 1.090000000000000E9     1.485841683886729E-1  -5.865320585216348E-1   2.065999265407120E-4   1.228321869327870E-4   0.000000000000000   0.000000000000000   0.000000000000000   0.000000000000000  
 1.097500000000000E9     4.262228462588223E-1   4.219267796472919E-1   2.524096057855302E-4  -1.009519398230838E-4   0.000000000000000   0.000000000000000   0.000000000000000   0.000000000000000  
 1.105000000000000E9    -5.759523264346720E-1   1.466589364815155E-1   8.225260417033319E-5  -2.383035716815352E-4   0.000000000000000   0.000000000000000   0.000000000000000   0.000000000000000  
 1.112500000000000E9     2.861760921101293E-1  -5.427286303323964E-1  -1.067475089013523E-4  -2.103906104864756E-4   0.000000000000000   0.000000000000000   0.000000000000000   0.000000000000000  
 1.120000000000000E9     2.796389945703329E-1   5.238323081386913E-1  -2.544260596296984E-4  -6.346560441979600E-5   0.000000000000000   0.000000000000000   0.000000000000000   0.000000000000000  
 1.127500000000000E9    -5.749340224980475E-1  -4.049542088725666E-2  -2.052052728347875E-4   1.769336201386973E-4   0.000000000000000   0.000000000000000   0.000000000000000   0.000000000000000  
 1.135000000000000E9     3.500956594314539E-1  -4.980680816022003E-1  -3.679346453878423E-5   2.290165237117750E-4   0.000000000000000   0.000000000000000   0.000000000000000   0.000000000000000  
 1.142500000000000E9     1.791689610922271E-1   5.679077058014149E-1   1.102604118249081E-4   1.983409949860270E-4   0.000000000000000   0.000000000000000   0.000000000000000   0.000000000000000  
 1.150000000000000E9    -5.461434755445686E-1  -2.296159983816229E-1   2.712384921878391E-4   6.770889653095039E-5   0.000000000000000   0.000000000000000   0.000000000000000   0.000000000000000  
 1.157500000000000E9     4.679788834768370E-1  -3.683177266365607E-1   2.568888011405122E-4  -1.723560194754268E-4   0.000000000000000   0.000000000000000   0.000000000000000   0.000000000000000  
 1.165000000000000E9     7.973619442684977E-2   5.856467083945415E-1   6.066437743379192E-6  -2.921980491976721E-4   0.000000000000000   0.000000000000000   0.000000000000000   0.000000000000000  
 1.172500000000000E9    -4.970558883761316E-1  -3.418010749953575E-1  -2.275662347546762E-4  -1.868527207186119E-4   0.000000000000000   0.000000000000000   0.000000000000000   0.000000000000000  
 1.180000000000000E9     5.711211487724611E-1  -1.869117397485017E-1  -3.578037942691350E-4   1.577038128793011E-5   0.000000000000000   0.000000000000000   0.000000000000000   0.000000000000000  
 1.187500000000000E9    -1.175198952376367E-1   5.670673968719332E-1  -2.160220963329483E-4   2.620932397595045E-4   0.000000000000000   0.000000000000000   0.000000000000000   0.000000000000000  
 1.195000000000000E9    -4.192030419735843E-1  -4.146703885193352E-1   1.022717727010299E-4   3.178997535485900E-4   0.000000000000000   0.000000000000000   0.000000000000000   0.000000000000000  
 1.202500000000000E9     6.085610710887374E-1  -7.091354819540809E-2   3.411875881254821E-4   1.415819943708195E-4   0.000000000000000   0.000000000000000   0.000000000000000   0.000000000000000  
 1.210000000000000E9    -2.946475605300946E-1   4.942125458589128E-1   3.511056806459590E-4  -8.183361688290123E-5   0.000000000000000   0.000000000000000   0.000000000000000   0.000000000000000  
 1.217500000000000E9    -2.414043658923608E-1  -5.276573771721909E-1   1.186668436723788E-4  -3.109445509633806E-4   0.000000000000000   0.000000000000000   0.000000000000000   0.000000000000000  
 1.225000000000000E9     5.971593658273747E-1   1.665556999197225E-2  -2.048356743017434E-4  -3.438416649272522E-4   0.000000000000000   0.000000000000000   0.000000000000000   0.000000000000000  
 1.232500000000000E9    -3.813073992096012E-1   4.264401888762458E-1  -3.196896884594534E-4  -9.972467469649080E-5   0.000000000000000   0.000000000000000   0.000000000000000   0.000000000000000  
 1.240000000000000E9    -9.268310665871833E-2  -5.873430487364472E-1  -2.928878367508752E-4   1.656183068922065E-4   0.000000000000000   0.000000000000000   0.000000000000000   0.000000000000000  
 1.247500000000000E9     5.442560676668651E-1   1.988234519243059E-1  -4.849170594936606E-5   3.443488567820560E-4   0.000000000000000   0.000000000000000   0.000000000000000   0.000000000000000  
 1.255000000000000E9    -4.731119090974096E-1   3.110879648960230E-1   1.849581361935926E-4   3.267265474187808E-4   0.000000000000000   0.000000000000000   0.000000000000000   0.000000000000000  
 1.262500000000000E9     2.553254859568288E-2  -5.989680952770454E-1   3.341410737637112E-4   6.698684734154791E-5   0.000000000000000   0.000000000000000   0.000000000000000   0.000000000000000  
 1.270000000000000E9     4.634388582706775E-1   3.352018880315044E-1   2.747133958121514E-4  -2.440579705046635E-4   0.000000000000000   0.000000000000000   0.000000000000000   0.000000000000000  
 1.277500000000000E9    -5.505814022181641E-1   1.755597339450274E-1   2.754981588166409E-5  -3.792370934625742E-4   0.000000000000000   0.000000000000000   0.000000000000000   0.000000000000000  
 1.285000000000000E9     1.641197409981503E-1  -5.682245646820753E-1  -2.205196063085466E-4  -2.504008218764608E-4   0.000000000000000   0.000000000000000   0.000000000000000   0.000000000000000  
 1.292500000000000E9     3.499466291855335E-1   4.604675724585500E-1  -3.452299017508502E-4  -1.821390969451390E-5   0.000000000000000   0.000000000000000   0.000000000000000   0.000000000000000  
 1.300000000000000E9    -5.757266750315848E-1   1.897294355322383E-2  -2.557469796992921E-4   2.604498080531997E-4   0.000000000000000   0.000000000000000   0.000000000000000   0.000000000000000  
 1.307500000000000E9     2.923451046576526E-1  -4.990403964078490E-1  -1.385014894250516E-6   3.360695929586162E-4   0.000000000000000   0.000000000000000   0.000000000000000   0.000000000000000  
 1.315000000000000E9     2.506776857822634E-1   5.271808231981684E-1   2.276888205340802E-4   2.265370346540461E-4   0.000000000000000   0.000000000000000   0.000000000000000   0.000000000000000  
 1.322500000000000E9    -5.461673122048494E-1  -1.721523083306523E-1   3.800638680099420E-4   2.555794833056877E-5   0.000000000000000   0.000000000000000   0.000000000000000   0.000000000000000  
 1.330000000000000E9     4.452166636592306E-1  -3.639556205935102E-1   2.605045851463721E-4  -2.598863523945735E-4   0.000000000000000   0.000000000000000   0.000000000000000   0.000000000000000  
 1.337500000000000E9     1.078418489759011E-1   5.538076523324264E-1  -2.310576803852718E-5  -3.735409114126796E-4   0.000000000000000   0.000000000000000   0.000000000000000   0.000000000000000  
 1.345000000000000E9    -4.963108715354385E-1  -2.741042678218751E-1  -2.785860474798204E-4  -2.362726052946710E-4   0.000000000000000   0.000000000000000   0.000000000000000   0.000000000000000  
 1.352500000000000E9     5.290988333412652E-1  -2.577529220133084E-1  -4.295570914587175E-4   3.608093650454964E-5   0.000000000000000   0.000000000000000   0.000000000000000   0.000000000000000  
 1.360000000000000E9    -8.744630101375292E-2   5.394732515091640E-1  -3.147841625148770E-4   3.437194659998394E-4   0.000000000000000   0.000000000000000   0.000000000000000   0.000000000000000  
 1.367500000000000E9    -4.166269330117726E-1  -3.895102219685520E-1   5.209820966739393E-5   5.065005760416392E-4   0.000000000000000   0.000000000000000   0.000000000000000   0.000000000000000  
 1.375000000000000E9     5.498882278343068E-1  -1.670303823755334E-1   4.105062071133039E-4   2.629801866010787E-4   0.000000000000000   0.000000000000000   0.000000000000000   0.000000000000000  
 1.382500000000000E9    -2.084121551179307E-1   5.146373665018250E-1   5.150088758549411E-4  -1.517382066535002E-4   0.000000000000000   0.000000000000000   0.000000000000000   0.000000000000000  
 1.390000000000000E9    -3.265622809088852E-1  -4.703065435311297E-1   2.241684909968692E-4  -4.897823528132709E-4   0.000000000000000   0.000000000000000   0.000000000000000   0.000000000000000  
 1.397500000000000E9     5.628919146980790E-1  -5.058963758998248E-2  -2.791214909286482E-4  -4.939417650174571E-4   0.000000000000000   0.000000000000000   0.000000000000000   0.000000000000000  
 1.405000000000000E9    -3.170724076932542E-1   4.720200897545913E-1  -5.433810155551673E-4  -1.387926848557417E-4   0.000000000000000   0.000000000000000   0.000000000000000   0.000000000000000  
 1.412500000000000E9    -1.816829162458528E-1  -5.451237343531495E-1  -4.617194331642941E-4   2.775082669610360E-4   0.000000000000000   0.000000000000000   0.000000000000000   0.000000000000000  
 1.420000000000000E9     5.396601060278972E-1   1.666075819097383E-1  -1.002139588176938E-4   4.984246787154636E-4   0.000000000000000   0.000000000000000   0.000000000000000   0.000000000000000  
 1.427500000000000E9    -4.344445999615708E-1   3.560426994838213E-1   3.029519761232634E-4   4.373152712105740E-4   0.000000000000000   0.000000000000000   0.000000000000000   0.000000000000000  
 1.435000000000000E9    -5.386163763890245E-3  -5.668785234588640E-1   5.157161004818108E-4   9.699847694116252E-5   0.000000000000000   0.000000000000000   0.000000000000000   0.000000000000000  
 1.442500000000000E9     4.701784552239309E-1   3.218679969255810E-1   4.538576077832834E-4  -3.373534709828453E-4   0.000000000000000   0.000000000000000   0.000000000000000   0.000000000000000  
 1.450000000000000E9    -5.065995318975182E-1   1.848206871617294E-1   7.367253288006082E-5  -6.210654307969695E-4   0.000000000000000   0.000000000000000   0.000000000000000   0.000000000000000  
 1.457500000000000E9     1.238861268671654E-1  -5.497513212409232E-1  -4.568547448909408E-4  -4.771105710868724E-4   0.000000000000000   0.000000000000000   0.000000000000000   0.000000000000000  
 1.465000000000000E9     4.025670791385880E-1   3.854328151066244E-1  -6.710633578607147E-4   4.477778317396374E-5   0.000000000000000   0.000000000000000   0.000000000000000   0.000000000000000  
 1.472500000000000E9    -5.365333443693309E-1   6.540018180025338E-2  -3.800234441893596E-4   5.367579643484957E-4   0.000000000000000   0.000000000000000   0.000000000000000   0.000000000000000  
 1.480000000000000E9     2.376026360842589E-1  -5.176534371099151E-1   1.951200784246603E-4   6.074890369761818E-4   0.000000000000000   0.000000000000000   0.000000000000000   0.000000000000000  
 1.487500000000000E9     2.937051597983690E-1   4.585085056976149E-1   5.666788299783036E-4   2.757640766299615E-4   0.000000000000000   0.000000000000000   0.000000000000000   0.000000000000000  
 1.495000000000000E9    -5.533935322085054E-1  -6.275007488443340E-2   5.652841677284772E-4  -2.163273651533498E-4   0.000000000000000   0.000000000000000   0.000000000000000   0.000000000000000  
 1.502500000000000E9     3.541285271628193E-1  -4.411938391409598E-1   1.644195437109173E-4  -5.488472692689687E-4   0.000000000000000   0.000000000000000   0.000000000000000   0.000000000000000  
 1.510000000000000E9     1.362900445120218E-1   5.321717912776169E-1  -2.737034597603837E-4  -5.334104761502960E-4   0.000000000000000   0.000000000000000   0.000000000000000   0.000000000000000  
 1.517500000000000E9    -5.145484817495961E-1  -2.293379684603642E-1  -5.617460511617407E-4  -1.869852539951650E-4   0.000000000000000   0.000000000000000   0.000000000000000   0.000000000000000  
 1.525000000000000E9     4.730263463423576E-1  -2.883436902928205E-1  -5.318540878608697E-4   3.038505898345537E-4   0.000000000000000   0.000000000000000   0.000000000000000   0.000000000000000  
 1.532500000000000E9    -1.564730204485837E-2   5.460701905074172E-1  -9.840798188015080E-5   6.126372322962352E-4   0.000000000000000   0.000000000000000   0.000000000000000   0.000000000000000  
 1.540000000000000E9    -4.401280338926886E-1  -3.327858293097881E-1   3.138208019701752E-4   4.774230681279582E-4   0.000000000000000   0.000000000000000   0.000000000000000   0.000000000000000  
 1.547500000000000E9     5.448349505450214E-1  -1.423489453440869E-1   5.395380553394969E-4   1.026405722257276E-4   0.000000000000000   0.000000000000000   0.000000000000000   0.000000000000000  
 1.555000000000000E9    -2.002065881819809E-1   4.994846834636731E-1   4.599592693489233E-4  -3.280764877244557E-4   0.000000000000000   0.000000000000000   0.000000000000000   0.000000000000000  
 1.562500000000000E9    -3.034985169046570E-1  -4.410850634291464E-1   8.869493932386503E-5  -5.701342901294165E-4   0.000000000000000   0.000000000000000   0.000000000000000   0.000000000000000  
 1.570000000000000E9     5.553380393542531E-1  -6.786839498479903E-2  -4.080703823056929E-4  -4.281787685094756E-4   0.000000000000000   0.000000000000000   0.000000000000000   0.000000000000000  
 1.577500000000000E9    -3.009492942985432E-1   4.421275459814934E-1  -5.976821008877857E-4  -3.271399206721900E-5   0.000000000000000   0.000000000000000   0.000000000000000   0.000000000000000  
 1.585000000000000E9    -1.538707356865975E-1  -5.312241586264993E-1  -4.570364577522605E-4   4.308710784222183E-4   0.000000000000000   0.000000000000000   0.000000000000000   0.000000000000000  
 1.592500000000000E9     5.272691936273571E-1   6.925912043799487E-2   7.628209249613644E-5   5.903868019277798E-4   0.000000000000000   0.000000000000000   0.000000000000000   0.000000000000000  
 1.600000000000000E9    -3.416074445284910E-1   3.987590623201704E-1   4.744566527429737E-4   3.360436476974382E-4   0.000000000000000   0.000000000000000   0.000000000000000   0.000000000000000  
 1.607500000000000E9    -1.232003405672852E-1  -5.574513579010076E-1   5.117887371650874E-4  -1.015064622053518E-4   0.000000000000000   0.000000000000000   0.000000000000000   0.000000000000000  
 1.615000000000000E9     4.744969439622846E-1   2.503984455093901E-1   3.443761621333360E-4  -3.700126433254432E-4   0.000000000000000   0.000000000000000   0.000000000000000   0.000000000000000  
 1.622500000000000E9    -4.687841098170705E-1   2.521292244780699E-1  -5.304531681091830E-5  -5.377716400894297E-4   0.000000000000000   0.000000000000000   0.000000000000000   0.000000000000000  
 1.630000000000000E9     3.678403461546543E-3  -5.500412225303661E-1  -4.455501652259848E-4  -2.986655165163597E-4   0.000000000000000   0.000000000000000   0.000000000000000   0.000000000000000  
 1.637500000000000E9     4.227459019994921E-1   3.528779339687800E-1  -5.347581189620279E-4   6.843455274879731E-5   0.000000000000000   0.000000000000000   0.000000000000000   0.000000000000000  
 1.645000000000000E9    -5.421398347282144E-1   6.837995437775725E-2  -3.251923630057206E-4   4.317219430568210E-4   0.000000000000000   0.000000000000000   0.000000000000000   0.000000000000000  
 1.652500000000000E9     2.471992787213244E-1  -4.789394633287692E-1   1.065580195612570E-4   5.821272908728086E-4   0.000000000000000   0.000000000000000   0.000000000000000   0.000000000000000  
 1.660000000000000E9     2.888215462013695E-1   4.499163420184883E-1   5.415692221085727E-4   3.503320125638145E-4   0.000000000000000   0.000000000000000   0.000000000000000   0.000000000000000  
 1.667500000000000E9    -5.283914066592105E-1  -3.469341738196236E-2   5.954081512878952E-4  -1.690140400142590E-4   0.000000000000000   0.000000000000000   0.000000000000000   0.000000000000000  
 1.675000000000000E9     3.519264534116811E-1  -4.161892744942670E-1   2.743174848927598E-4  -5.667475182070073E-4   0.000000000000000   0.000000000000000   0.000000000000000   0.000000000000000  
 1.682500000000000E9     1.597795129651251E-1   4.949638858091635E-1  -2.402344854076797E-4  -6.639299483277262E-4   0.000000000000000   0.000000000000000   0.000000000000000   0.000000000000000  
 1.690000000000000E9    -4.978553313512227E-1  -1.657082241836257E-1  -6.036098473336652E-4  -1.944884934352093E-4   0.000000000000000   0.000000000000000   0.000000000000000   0.000000000000000  
 1.697500000000000E9     4.160769588917765E-1  -3.532849925992928E-1  -5.624938903386965E-4   3.250289592556420E-4   0.000000000000000   0.000000000000000   0.000000000000000   0.000000000000000  
 1.705000000000000E9     2.248021637727275E-2   5.169587531337914E-1  -1.601463988045315E-4   6.342473432389879E-4   0.000000000000000   0.000000000000000   0.000000000000000   0.000000000000000  
 1.712500000000000E9    -4.561511158729992E-1  -2.817363294210206E-1   3.813948103434879E-4   4.968375467758342E-4   0.000000000000000   0.000000000000000   0.000000000000000   0.000000000000000  
 1.720000000000000E9     4.802360253713173E-1  -2.438990748623840E-1   5.760254627871550E-4   9.217326227295695E-5   0.000000000000000   0.000000000000000   0.000000000000000   0.000000000000000  
 1.727500000000000E9    -1.361904195838662E-1   5.108575896001020E-1   4.926020609165122E-4  -3.176819248723676E-4   0.000000000000000   0.000000000000000   0.000000000000000   0.000000000000000  
 1.735000000000000E9    -3.531568934062050E-1  -4.079470931395726E-1   1.184771354180249E-4  -5.798428486533426E-4   0.000000000000000   0.000000000000000   0.000000000000000   0.000000000000000  
 1.742500000000000E9     5.183293405096789E-1  -8.022021332102453E-2  -3.619342551590609E-4  -4.641370876575881E-4   0.000000000000000   0.000000000000000   0.000000000000000   0.000000000000000  
