!    02.03.2026   11:19:08 
! Ref Plane: 0,000 mm
# MHZ S MA R  50
!
1000,0000     0,97149       -83,80         
1005,0000     0,97161       -91,47         
1010,0000     0,97195       -99,11         
1015,0000     0,97172       -106,79        
1020,0000     0,97153       -114,47        
1025,0000     0,97093       -122,16        
1030,0000     0,97061       -129,85        
1035,0000     0,97007       -137,54        
1040,0000     0,96961       -145,23        
1045,0000     0,9692        -152,92        
1050,0000     0,9685        -160,62        
1055,0000     0,96759       -168,29        
1060,0000     0,96679       -175,97        
1065,0000     0,96585       176,35         
1070,0000     0,96491       168,68         
1075,0000     0,96413       161,01         
1080,0000     0,96342       153,35         
1085,0000     0,96332       145,67         
1090,0000     0,96347       138,05         
1095,0000     0,96331       130,47         
1100,0000     0,96295       122,89         
1105,0000     0,96279       115,35         
1110,0000     0,96215       107,81         
1115,0000     0,9617        100,29         
1120,0000     0,96109       92,77          
1125,0000     0,96066       85,26          
1130,0000     0,96046       77,75          
1135,0000     0,96004       70,25          
1140,0000     0,95999       62,74          
1145,0000     0,95974       55,22          
1150,0000     0,95975       47,70          
1155,0000     0,9597        40,15          
1160,0000     0,95988       32,61          
1165,0000     0,96042       25,06          
1170,0000     0,96093       17,51          
1175,0000     0,96216       9,95           
1180,0000     0,96292       2,40           
1185,0000     0,96391       -5,11          
1190,0000     0,9646        -12,64         
1195,0000     0,9651        -20,19         
1200,0000     0,96562       -27,74         
1205,0000     0,96602       -35,32         
1210,0000     0,9661        -42,88         
1215,0000     0,96649       -50,48         
1220,0000     0,96673       -58,09         
1225,0000     0,96682       -65,72         
1230,0000     0,96709       -73,36         
1235,0000     0,96741       -81,02         
1240,0000     0,96726       -88,69         
1245,0000     0,96724       -96,36         
1250,0000     0,96677       -104,07        
1255,0000     0,96687       -111,79        
1260,0000     0,96663       -119,50        
1265,0000     0,96654       -127,21        
1270,0000     0,96653       -134,93        
1275,0000     0,96631       -142,61        
1280,0000     0,96582       -150,30        
1285,0000     0,96507       -158,00        
1290,0000     0,96429       -165,70        
1295,0000     0,96331       -173,39        
1300,0000     0,96257       178,88         
1305,0000     0,96203       171,18         
1310,0000     0,96149       163,48         
1315,0000     0,96071       155,76         
1320,0000     0,95988       148,07         
1325,0000     0,95924       140,40         
1330,0000     0,95836       132,69         
1335,0000     0,9574        125,02         
1340,0000     0,95626       117,34         
1345,0000     0,95536       109,66         
1350,0000     0,95474       102,00         
1355,0000     0,95422       94,33          
1360,0000     0,95373       86,67          
1365,0000     0,95379       79,06          
1370,0000     0,95336       71,45          
1375,0000     0,95348       63,84          
1380,0000     0,95311       56,24          
1385,0000     0,95378       48,62          
1390,0000     0,95393       41,03          
1395,0000     0,95451       33,46          
1400,0000     0,95508       25,90          
1405,0000     0,95558       18,37          
1410,0000     0,95619       10,83          
1415,0000     0,95665       3,29           
1420,0000     0,95701       -4,24          
1425,0000     0,95732       -11,75         
1430,0000     0,95738       -19,29         
1435,0000     0,95818       -26,83         
1440,0000     0,95893       -34,41         
1445,0000     0,96011       -41,94         
1450,0000     0,96103       -49,50         
1455,0000     0,96172       -57,04         
1460,0000     0,96217       -64,59         
1465,0000     0,96258       -72,14         
1470,0000     0,96338       -79,72         
1475,0000     0,9635        -87,28         
1480,0000     0,96375       -94,84         
1485,0000     0,96394       -102,42        
1490,0000     0,96438       -109,98        
1495,0000     0,96427       -117,54        
1500,0000     0,9645        -125,09        
1505,0000     0,96438       -132,61        
1510,0000     0,96429       -140,13        
1515,0000     0,96426       -147,66        
1520,0000     0,96404       -155,19        
1525,0000     0,96388       -162,75        
1530,0000     0,96268       -170,32        
1535,0000     0,96065       -177,89        
1540,0000     0,9588        174,55         
1545,0000     0,95732       167,00         
1550,0000     0,95704       159,43         
1555,0000     0,95709       151,77         
1560,0000     0,9562        144,08         
1565,0000     0,95525       136,42         
1570,0000     0,95435       128,83         
1575,0000     0,95394       121,24         
1580,0000     0,95417       113,65         
1585,0000     0,9541        106,05         
1590,0000     0,95408       98,46          
1595,0000     0,95431       90,86          
1600,0000     0,95417       83,23          
1605,0000     0,95416       75,63          
1610,0000     0,95422       68,04          
1615,0000     0,95447       60,42          
1620,0000     0,95358       52,81          
1625,0000     0,95322       45,21          
1630,0000     0,95306       37,58          
1635,0000     0,95365       29,92          
1640,0000     0,95431       22,21          
1645,0000     0,95484       14,47          
1650,0000     0,955         6,73           
1655,0000     0,95497       -0,94          
1660,0000     0,95578       -8,56          
1665,0000     0,95712       -16,22         
1670,0000     0,95879       -23,94         
1675,0000     0,96004       -31,66         
1680,0000     0,96037       -39,41         
1685,0000     0,96017       -47,16         
1690,0000     0,96035       -54,85         
1695,0000     0,9609        -62,51         
1700,0000     0,96214       -70,21         
1705,0000     0,96299       -77,92         
1710,0000     0,963         -85,59         
1715,0000     0,96251       -93,26         
1720,0000     0,96178       -100,90        
1725,0000     0,96072       -108,53        
1730,0000     0,96076       -116,15        
1735,0000     0,96037       -123,79        
1740,0000     0,96017       -131,37        
1745,0000     0,96008       -138,94        
1750,0000     0,95997       -146,50        
1755,0000     0,95982       -154,07        
1760,0000     0,95982       -161,64        
1765,0000     0,95953       -169,16        
1770,0000     0,95908       -176,66        
1775,0000     0,95814       175,87         
1780,0000     0,95789       168,41         
1785,0000     0,95781       160,97         
1790,0000     0,95801       153,48         
1795,0000     0,95798       145,99         
1800,0000     0,95643       138,54         
1805,0000     0,95473       131,11         
1810,0000     0,95358       123,70         
1815,0000     0,95283       116,27         
1820,0000     0,95241       108,80         
1825,0000     0,95188       101,26         
1830,0000     0,95137       93,74          
1835,0000     0,95097       86,26          
1840,0000     0,95063       78,80          
1845,0000     0,95088       71,30          
1850,0000     0,95127       63,77          
1855,0000     0,95171       56,22          
1860,0000     0,95207       48,66          
1865,0000     0,95235       41,08          
1870,0000     0,95252       33,52          
1875,0000     0,95313       25,92          
1880,0000     0,95438       18,25          
1885,0000     0,95463       10,57          
1890,0000     0,95421       2,91           
1895,0000     0,95393       -4,73          
1900,0000     0,95436       -12,44         
1905,0000     0,95501       -20,19         
1910,0000     0,95544       -28,05         
1915,0000     0,95493       -35,87         
1920,0000     0,95463       -43,69         
1925,0000     0,95484       -51,49         
1930,0000     0,95531       -59,28         
1935,0000     0,95591       -67,10         
1940,0000     0,95693       -74,92         
1945,0000     0,95774       -82,75         
1950,0000     0,95774       -90,54         
1955,0000     0,9575        -98,33         
1960,0000     0,95698       -106,08        
1965,0000     0,95651       -113,80        
1970,0000     0,95662       -121,52        
1975,0000     0,95676       -129,24        
1980,0000     0,95651       -136,91        
1985,0000     0,95537       -144,58        
1990,0000     0,95492       -152,25        
1995,0000     0,95395       -159,88        
2000,0000     0,95316       -167,49        
2005,0000     0,95206       -175,11        
2010,0000     0,95152       177,33         
2015,0000     0,95117       169,82         
2020,0000     0,95097       162,29         
2025,0000     0,95079       154,76         
2030,0000     0,95038       147,22         
2035,0000     0,94954       139,72         
2040,0000     0,94837       132,28         
2045,0000     0,94795       124,87         
2050,0000     0,94756       117,46         
2055,0000     0,94822       110,05         
2060,0000     0,94881       102,61         
2065,0000     0,9491        95,18          
2070,0000     0,94826       87,77          
2075,0000     0,94819       80,37          
2080,0000     0,94783       72,93          
2085,0000     0,94812       65,48          
2090,0000     0,9482        58,02          
2095,0000     0,94802       50,53          
2100,0000     0,94826       43,00          
2105,0000     0,94818       35,48          
2110,0000     0,94849       27,94          
2115,0000     0,94901       20,36          
2120,0000     0,94971       12,75          
2125,0000     0,95009       5,11           
2130,0000     0,95075       -2,55          
2135,0000     0,95111       -10,23         
2140,0000     0,95146       -17,94         
2145,0000     0,95232       -25,71         
2150,0000     0,95254       -33,50         
2155,0000     0,95287       -41,25         
2160,0000     0,95262       -48,99         
2165,0000     0,95274       -56,76         
2170,0000     0,953         -64,54         
2175,0000     0,95299       -72,36         
2180,0000     0,95292       -80,16         
2185,0000     0,95253       -87,99         
2190,0000     0,95193       -95,80         
2195,0000     0,95098       -103,57        
2200,0000     0,95025       -111,33        
2205,0000     0,94977       -119,09        
2210,0000     0,94937       -126,84        
2215,0000     0,94901       -134,60        
2220,0000     0,9484        -142,33        
2225,0000     0,94801       -150,03        
2230,0000     0,94763       -157,71        
2235,0000     0,94727       -165,38        
2240,0000     0,94708       -173,03        
2245,0000     0,94683       179,37         
2250,0000     0,9459        171,79         
2255,0000     0,94544       164,22         
2260,0000     0,94472       156,68         
2265,0000     0,94418       149,11         
2270,0000     0,94346       141,56         
2275,0000     0,94266       134,04         
2280,0000     0,94109       126,52         
2285,0000     0,94042       119,07         
2290,0000     0,9402        111,63         
2295,0000     0,94028       104,13         
2300,0000     0,94025       96,62          
2305,0000     0,94022       89,08          
2310,0000     0,93986       81,55          
2315,0000     0,93929       74,03          
2320,0000     0,93923       66,49          
2325,0000     0,93919       58,95          
2330,0000     0,93976       51,38          
2335,0000     0,9404        43,82          
2340,0000     0,94108       36,21          
2345,0000     0,94147       28,61          
2350,0000     0,9419        20,95          
2355,0000     0,94223       13,28          
2360,0000     0,94299       5,59           
2365,0000     0,94268       -2,10          
2370,0000     0,94287       -9,79          
2375,0000     0,94295       -17,46         
2380,0000     0,94338       -25,13         
2385,0000     0,94375       -32,87         
2390,0000     0,94425       -40,63         
2395,0000     0,94449       -48,39         
2400,0000     0,94471       -56,13         
2405,0000     0,94477       -63,87         
2410,0000     0,94496       -71,62         
2415,0000     0,9452        -79,40         
2420,0000     0,94563       -87,16         
2425,0000     0,94565       -94,89         
2430,0000     0,94567       -102,58        
2435,0000     0,94531       -110,23        
2440,0000     0,94496       -117,86        
2445,0000     0,94506       -125,49        
2450,0000     0,94454       -133,10        
2455,0000     0,94398       -140,70        
2460,0000     0,94377       -148,27        
2465,0000     0,94312       -155,79        
2470,0000     0,94242       -163,25        
2475,0000     0,94203       -170,72        
2480,0000     0,9411        -178,17        
2485,0000     0,9407        174,42         
2490,0000     0,94022       167,02         
2495,0000     0,93958       159,65         
2500,0000     0,93907       152,25         
2505,0000     0,93881       144,88         
2510,0000     0,93906       137,50         
2515,0000     0,93868       130,14         
2520,0000     0,93856       122,81         
2525,0000     0,938         115,48         
2530,0000     0,93812       108,15         
2535,0000     0,93856       100,77         
2540,0000     0,9384        93,36          
2545,0000     0,93804       85,94          
2550,0000     0,93754       78,51          
2555,0000     0,93711       71,07          
2560,0000     0,93661       63,60          
2565,0000     0,9373        56,10          
2570,0000     0,93782       48,52          
2575,0000     0,93831       40,90          
2580,0000     0,93868       33,27          
2585,0000     0,9387        25,63          
2590,0000     0,93871       17,93          
2595,0000     0,93864       10,20          
2600,0000     0,93883       2,43           
2605,0000     0,93889       -5,37          
2610,0000     0,93904       -13,19         
2615,0000     0,93955       -21,06         
2620,0000     0,93946       -28,95         
2625,0000     0,93944       -36,91         
2630,0000     0,93912       -44,90         
2635,0000     0,93834       -52,88         
2640,0000     0,93775       -60,84         
2645,0000     0,93801       -68,78         
2650,0000     0,93802       -76,72         
2655,0000     0,93822       -84,65         
2660,0000     0,93858       -92,60         
2665,0000     0,93879       -100,54        
2670,0000     0,93791       -108,38        
2675,0000     0,9375        -116,20        
2680,0000     0,93753       -123,98        
2685,0000     0,93755       -131,74        
2690,0000     0,93754       -139,50        
2695,0000     0,93726       -147,17        
2700,0000     0,93665       -154,81        
2705,0000     0,93629       -162,41        
2710,0000     0,93628       -169,97        
2715,0000     0,9358        -177,49        
2720,0000     0,93549       175,03         
2725,0000     0,93549       167,57         
2730,0000     0,93496       160,15         
2735,0000     0,93499       152,75         
2740,0000     0,93491       145,37         
2745,0000     0,93474       137,98         
2750,0000     0,93455       130,60         
2755,0000     0,93433       123,24         
2760,0000     0,93435       115,95         
2765,0000     0,93421       108,64         
2770,0000     0,93428       101,31         
2775,0000     0,93446       93,94          
2780,0000     0,93447       86,53          
2785,0000     0,93471       79,13          
2790,0000     0,93413       71,72          
2795,0000     0,93465       64,27          
2800,0000     0,93541       56,81          
2805,0000     0,93611       49,27          
2810,0000     0,93663       41,67          
2815,0000     0,93668       34,06          
2820,0000     0,93611       26,45          
2825,0000     0,93592       18,83          
2830,0000     0,93621       11,12          
2835,0000     0,9362        3,36           
2840,0000     0,93633       -4,46          
2845,0000     0,93644       -12,30         
2850,0000     0,93621       -20,19         
2855,0000     0,93623       -28,10         
2860,0000     0,9358        -36,03         
2865,0000     0,93521       -44,00         
2870,0000     0,93494       -51,97         
2875,0000     0,93455       -59,94         
2880,0000     0,93433       -67,91         
2885,0000     0,93434       -75,88         
2890,0000     0,93415       -83,86         
2895,0000     0,93348       -91,83         
2900,0000     0,93288       -99,79         
2905,0000     0,93173       -107,69        
2910,0000     0,93075       -115,53        
2915,0000     0,93018       -123,28        
2920,0000     0,93028       -131,04        
2925,0000     0,93056       -138,76        
2930,0000     0,93043       -146,45        
2935,0000     0,93016       -154,05        
2940,0000     0,92965       -161,57        
2945,0000     0,92948       -169,01        
2950,0000     0,92945       -176,46        
2955,0000     0,92957       176,14         
2960,0000     0,92937       168,81         
2965,0000     0,92919       161,49         
2970,0000     0,92911       154,22         
2975,0000     0,92894       146,97         
2980,0000     0,92901       139,74         
2985,0000     0,92894       132,53         
2990,0000     0,92904       125,33         
2995,0000     0,9291        118,16         
3000,0000     0,92922       111,03         
