!    02.03.2026   11:00:17 
! Ref Plane: 0,000 mm
# MHZ S MA R  50
!
1000,0000     1,00154       56,74          
1005,0000     1,00163       57,00          
1010,0000     1,00147       57,26          
1015,0000     1,00155       57,54          
1020,0000     1,00162       57,81          
1025,0000     1,00165       58,09          
1030,0000     1,00156       58,37          
1035,0000     1,00139       58,64          
1040,0000     1,00137       58,89          
1045,0000     1,00174       59,15          
1050,0000     1,00219       59,42          
1055,0000     1,00263       59,73          
1060,0000     1,00287       60,03          
1065,0000     1,00301       60,35          
1070,0000     1,00254       60,66          
1075,0000     1,00282       60,95          
1080,0000     1,00243       61,25          
1085,0000     1,00226       61,53          
1090,0000     1,00207       61,81          
1095,0000     1,00174       62,09          
1100,0000     1,00134       62,36          
1105,0000     1,00128       62,64          
1110,0000     1,00147       62,94          
1115,0000     1,0014        63,23          
1120,0000     1,00151       63,51          
1125,0000     1,0013        63,80          
1130,0000     1,00157       64,08          
1135,0000     1,00157       64,38          
1140,0000     1,00156       64,66          
1145,0000     1,00164       64,95          
1150,0000     1,00173       65,23          
1155,0000     1,00165       65,51          
1160,0000     1,00165       65,78          
1165,0000     1,0016        66,05          
1170,0000     1,0017        66,33          
1175,0000     1,00183       66,59          
1180,0000     1,00188       66,85          
1185,0000     1,00191       67,12          
1190,0000     1,0021        67,40          
1195,0000     1,00223       67,67          
1200,0000     1,00241       67,94          
1205,0000     1,00277       68,22          
1210,0000     1,00276       68,50          
1215,0000     1,00275       68,79          
1220,0000     1,00256       69,08          
1225,0000     1,00216       69,35          
1230,0000     1,00212       69,63          
1235,0000     1,00222       69,88          
1240,0000     1,00232       70,16          
1245,0000     1,00243       70,44          
1250,0000     1,00248       70,73          
1255,0000     1,00253       71,01          
1260,0000     1,00294       71,30          
1265,0000     1,003         71,60          
1270,0000     1,00278       71,87          
1275,0000     1,00294       72,15          
1280,0000     1,0028        72,44          
1285,0000     1,00271       72,72          
1290,0000     1,0026        73,02          
1295,0000     1,00236       73,29          
1300,0000     1,00208       73,57          
1305,0000     1,00194       73,85          
1310,0000     1,00165       74,12          
1315,0000     1,00136       74,41          
1320,0000     1,00118       74,68          
1325,0000     1,00112       74,96          
1330,0000     1,0007        75,24          
1335,0000     1,00099       75,52          
1340,0000     1,00066       75,80          
1345,0000     1,00057       76,07          
1350,0000     1,00059       76,37          
1355,0000     1,00046       76,64          
1360,0000     1,00034       76,90          
1365,0000     1,00059       77,19          
1370,0000     1,00021       77,48          
1375,0000     1,00048       77,74          
1380,0000     1,00039       78,02          
1385,0000     1,00072       78,30          
1390,0000     1,00075       78,58          
1395,0000     1,00087       78,86          
1400,0000     1,00111       79,14          
1405,0000     1,00109       79,43          
1410,0000     1,00104       79,71          
1415,0000     1,00121       80,00          
1420,0000     1,00118       80,29          
1425,0000     1,00107       80,57          
1430,0000     1,00109       80,86          
1435,0000     1,00082       81,15          
1440,0000     1,00092       81,42          
1445,0000     1,00102       81,72          
1450,0000     1,00089       82,01          
1455,0000     1,00092       82,30          
1460,0000     1,0009        82,60          
1465,0000     1,00109       82,87          
1470,0000     1,00092       83,17          
1475,0000     1,00118       83,47          
1480,0000     1,00106       83,76          
1485,0000     1,00112       84,04          
1490,0000     1,0012        84,33          
1495,0000     1,00121       84,61          
1500,0000     1,0018        84,89          
1505,0000     1,00188       85,19          
1510,0000     1,00175       85,45          
1515,0000     1,00157       85,73          
1520,0000     1,00133       86,03          
1525,0000     1,00111       86,32          
1530,0000     1,00135       86,61          
1535,0000     1,00132       86,86          
1540,0000     1,00131       87,13          
1545,0000     1,00123       87,40          
1550,0000     1,00122       87,65          
1555,0000     1,00118       87,94          
1560,0000     1,00086       88,22          
1565,0000     1,0008        88,49          
1570,0000     1,0007        88,75          
1575,0000     1,00076       89,01          
1580,0000     1,00113       89,31          
1585,0000     1,00118       89,59          
1590,0000     1,00134       89,87          
1595,0000     1,00145       90,16          
1600,0000     1,00169       90,41          
1605,0000     1,00187       90,68          
1610,0000     1,00149       90,97          
1615,0000     1,00136       91,26          
1620,0000     1,00099       91,57          
1625,0000     1,00165       91,88          
1630,0000     1,00243       92,18          
1635,0000     1,00277       92,46          
1640,0000     1,00299       92,75          
1645,0000     1,00226       93,03          
1650,0000     1,0019        93,35          
1655,0000     1,00138       93,67          
1660,0000     1,00126       93,97          
1665,0000     1,00102       94,28          
1670,0000     1,00084       94,57          
1675,0000     1,00083       94,86          
1680,0000     1,00066       95,10          
1685,0000     1,00088       95,35          
1690,0000     1,00076       95,62          
1695,0000     1,00034       95,89          
1700,0000     0,99992       96,17          
1705,0000     0,99935       96,46          
1710,0000     0,99947       96,74          
1715,0000     1,00008       97,01          
1720,0000     1,00059       97,27          
1725,0000     1,00093       97,56          
1730,0000     1,00156       97,83          
1735,0000     1,00207       98,10          
1740,0000     1,00255       98,36          
1745,0000     1,00279       98,61          
1750,0000     1,00213       98,90          
1755,0000     1,00132       99,18          
1760,0000     1,00109       99,49          
1765,0000     1,0016        99,80          
1770,0000     1,00276       100,09         
1775,0000     1,0034        100,35         
1780,0000     1,00358       100,63         
1785,0000     1,00359       100,90         
1790,0000     1,003         101,20         
1795,0000     1,00246       101,49         
1800,0000     1,00195       101,79         
1805,0000     1,00128       102,11         
1810,0000     1,00143       102,42         
1815,0000     1,00112       102,71         
1820,0000     1,00116       102,99         
1825,0000     1,00097       103,21         
1830,0000     1,00066       103,46         
1835,0000     1,00027       103,71         
1840,0000     0,99946       103,98         
1845,0000     0,99916       104,27         
1850,0000     0,99889       104,56         
1855,0000     0,99883       104,86         
1860,0000     0,99935       105,14         
1865,0000     1,00011       105,40         
1870,0000     1,00097       105,66         
1875,0000     1,00154       105,91         
1880,0000     1,00201       106,19         
1885,0000     1,002         106,45         
1890,0000     1,00133       106,73         
1895,0000     1,00038       107,02         
1900,0000     1,00016       107,32         
1905,0000     1,00011       107,64         
1910,0000     1,00076       107,95         
1915,0000     1,0015        108,24         
1920,0000     1,00298       108,50         
1925,0000     1,00297       108,78         
1930,0000     1,00286       109,06         
1935,0000     1,00239       109,36         
1940,0000     1,00179       109,66         
1945,0000     1,00135       109,98         
1950,0000     1,00128       110,28         
1955,0000     1,00128       110,58         
1960,0000     1,00134       110,87         
1965,0000     1,00146       111,15         
1970,0000     1,00159       111,38         
1975,0000     1,00089       111,63         
1980,0000     1,00031       111,87         
1985,0000     0,99992       112,14         
1990,0000     0,9998        112,42         
1995,0000     0,99958       112,72         
2000,0000     1,00006       113,01         
2005,0000     1,0007        113,27         
2010,0000     1,00176       113,54         
2015,0000     1,00203       113,82         
2020,0000     1,00255       114,06         
2025,0000     1,00275       114,32         
2030,0000     1,0026        114,59         
2035,0000     1,00195       114,88         
2040,0000     1,00153       115,18         
2045,0000     1,00176       115,49         
2050,0000     1,00177       115,79         
2055,0000     1,00254       116,09         
2060,0000     1,00333       116,36         
2065,0000     1,00399       116,63         
2070,0000     1,00402       116,89         
2075,0000     1,00409       117,19         
2080,0000     1,00363       117,48         
2085,0000     1,00353       117,80         
2090,0000     1,00332       118,11         
2095,0000     1,0033        118,41         
2100,0000     1,00325       118,70         
2105,0000     1,00311       118,99         
2110,0000     1,00292       119,27         
2115,0000     1,00261       119,58         
2120,0000     1,00211       119,80         
2125,0000     1,00182       120,05         
2130,0000     1,00082       120,33         
2135,0000     1,0005        120,62         
2140,0000     1,00054       120,88         
2145,0000     1,00062       121,18         
2150,0000     1,00091       121,48         
2155,0000     1,00176       121,74         
2160,0000     1,00203       122,02         
2165,0000     1,00237       122,30         
2170,0000     1,00252       122,55         
2175,0000     1,00252       122,82         
2180,0000     1,00245       123,11         
2185,0000     1,00202       123,41         
2190,0000     1,00166       123,72         
2195,0000     1,00193       124,02         
2200,0000     1,00263       124,33         
2205,0000     1,00288       124,60         
2210,0000     1,00356       124,89         
2215,0000     1,00395       125,16         
2220,0000     1,00446       125,44         
2225,0000     1,00478       125,73         
2230,0000     1,00474       126,03         
2235,0000     1,00465       126,37         
2240,0000     1,00486       126,68         
2245,0000     1,00467       126,96         
2250,0000     1,00466       127,25         
2255,0000     1,00421       127,53         
2260,0000     1,00398       127,80         
2265,0000     1,00382       128,03         
2270,0000     1,00332       128,29         
2275,0000     1,00331       128,54         
2280,0000     1,00257       128,81         
2285,0000     1,00259       129,12         
2290,0000     1,00259       129,45         
2295,0000     1,00293       129,75         
2300,0000     1,00333       130,04         
2305,0000     1,00368       130,31         
2310,0000     1,00381       130,57         
2315,0000     1,00371       130,82         
2320,0000     1,00362       131,06         
2325,0000     1,00301       131,33         
2330,0000     1,00305       131,61         
2335,0000     1,00272       131,92         
2340,0000     1,0029        132,20         
2345,0000     1,00308       132,49         
2350,0000     1,00362       132,75         
2355,0000     1,00397       133,00         
2360,0000     1,00419       133,28         
2365,0000     1,00454       133,52         
2370,0000     1,00446       133,81         
2375,0000     1,00422       134,11         
2380,0000     1,00411       134,40         
2385,0000     1,00422       134,70         
2390,0000     1,00409       134,99         
2395,0000     1,00402       135,26         
2400,0000     1,00386       135,54         
2405,0000     1,00361       135,79         
2410,0000     1,00368       136,04         
2415,0000     1,00319       136,31         
2420,0000     1,00286       136,57         
2425,0000     1,00279       136,84         
2430,0000     1,00282       137,12         
2435,0000     1,00282       137,44         
2440,0000     1,00313       137,76         
2445,0000     1,0034        138,07         
2450,0000     1,00345       138,37         
2455,0000     1,00345       138,65         
2460,0000     1,00325       138,92         
2465,0000     1,00327       139,18         
2470,0000     1,00297       139,45         
2475,0000     1,003         139,74         
2480,0000     1,00264       140,03         
2485,0000     1,00258       140,35         
2490,0000     1,0028        140,63         
2495,0000     1,00273       140,93         
2500,0000     1,00294       141,19         
2505,0000     1,00305       141,45         
2510,0000     1,00346       141,71         
2515,0000     1,00344       141,99         
2520,0000     1,00344       142,26         
2525,0000     1,00337       142,56         
2530,0000     1,00332       142,85         
2535,0000     1,00353       143,14         
2540,0000     1,00372       143,43         
2545,0000     1,00392       143,72         
2550,0000     1,00392       143,97         
2555,0000     1,00402       144,23         
2560,0000     1,00371       144,46         
2565,0000     1,00384       144,74         
2570,0000     1,00384       145,00         
2575,0000     1,00398       145,28         
2580,0000     1,00386       145,58         
2585,0000     1,00427       145,87         
2590,0000     1,00443       146,16         
2595,0000     1,00451       146,43         
2600,0000     1,00455       146,71         
2605,0000     1,00462       146,95         
2610,0000     1,00483       147,22         
2615,0000     1,00474       147,48         
2620,0000     1,00479       147,77         
2625,0000     1,0046        148,09         
2630,0000     1,00448       148,40         
2635,0000     1,00431       148,68         
2640,0000     1,0044        148,97         
2645,0000     1,00424       149,23         
2650,0000     1,00388       149,50         
2655,0000     1,00387       149,78         
2660,0000     1,00414       150,05         
2665,0000     1,00394       150,33         
2670,0000     1,00373       150,63         
2675,0000     1,00357       150,93         
2680,0000     1,00359       151,21         
2685,0000     1,00356       151,48         
2690,0000     1,00395       151,75         
2695,0000     1,00401       152,01         
2700,0000     1,00387       152,30         
2705,0000     1,00378       152,56         
2710,0000     1,00377       152,83         
2715,0000     1,00397       153,11         
2720,0000     1,00378       153,38         
2725,0000     1,00396       153,69         
2730,0000     1,00415       153,98         
2735,0000     1,00467       154,28         
2740,0000     1,00478       154,52         
2745,0000     1,00459       154,80         
2750,0000     1,00484       155,08         
2755,0000     1,00484       155,35         
2760,0000     1,00507       155,64         
2765,0000     1,00503       155,93         
2770,0000     1,00486       156,22         
2775,0000     1,00478       156,53         
2780,0000     1,00476       156,81         
2785,0000     1,0047        157,10         
2790,0000     1,00459       157,36         
2795,0000     1,00446       157,65         
2800,0000     1,00442       157,94         
2805,0000     1,00431       158,21         
2810,0000     1,0042        158,49         
2815,0000     1,00429       158,78         
2820,0000     1,00407       159,05         
2825,0000     1,00414       159,32         
2830,0000     1,00428       159,60         
2835,0000     1,00418       159,86         
2840,0000     1,00414       160,12         
2845,0000     1,00427       160,39         
2850,0000     1,00428       160,66         
2855,0000     1,00451       160,93         
2860,0000     1,00443       161,21         
2865,0000     1,00453       161,48         
2870,0000     1,00456       161,75         
2875,0000     1,00481       162,02         
2880,0000     1,00493       162,28         
2885,0000     1,00488       162,57         
2890,0000     1,00498       162,87         
2895,0000     1,00488       163,16         
2900,0000     1,00498       163,44         
2905,0000     1,00501       163,73         
2910,0000     1,00492       164,01         
2915,0000     1,0049        164,31         
2920,0000     1,00483       164,57         
2925,0000     1,00492       164,86         
2930,0000     1,00466       165,15         
2935,0000     1,00446       165,45         
2940,0000     1,00417       165,73         
2945,0000     1,00405       166,02         
2950,0000     1,00398       166,28         
2955,0000     1,00403       166,55         
2960,0000     1,00384       166,83         
2965,0000     1,00388       167,11         
2970,0000     1,00391       167,37         
2975,0000     1,00374       167,64         
2980,0000     1,0035        167,92         
2985,0000     1,00353       168,21         
2990,0000     1,00354       168,48         
2995,0000     1,00342       168,74         
3000,0000     1,00341       169,01         
