!    02.03.2026   10:47:04 
! Ref Plane: 0,000 mm
# MHZ S MA R  50
!
1000,0000     0,99996       -2,61          
1005,0000     1,0002        -2,63          
1010,0000     0,99999       -2,66          
1015,0000     1,00033       -2,69          
1020,0000     1,00025       -2,76          
1025,0000     1,00072       -2,80          
1030,0000     1,00118       -2,82          
1035,0000     1,00145       -2,84          
1040,0000     1,00178       -2,83          
1045,0000     1,00216       -2,82          
1050,0000     1,0025        -2,83          
1055,0000     1,00271       -2,80          
1060,0000     1,00291       -2,79          
1065,0000     1,00304       -2,78          
1070,0000     1,0024        -2,77          
1075,0000     1,00232       -2,77          
1080,0000     1,00182       -2,78          
1085,0000     1,00162       -2,78          
1090,0000     1,00128       -2,79          
1095,0000     1,00088       -2,80          
1100,0000     1,0005        -2,81          
1105,0000     1,00057       -2,84          
1110,0000     1,00064       -2,84          
1115,0000     1,00059       -2,85          
1120,0000     1,00054       -2,87          
1125,0000     1,00004       -2,89          
1130,0000     1,00014       -2,91          
1135,0000     0,99994       -2,93          
1140,0000     0,99967       -2,97          
1145,0000     0,99963       -3,02          
1150,0000     0,99969       -3,06          
1155,0000     0,99983       -3,11          
1160,0000     0,99999       -3,15          
1165,0000     1,00044       -3,19          
1170,0000     1,00103       -3,21          
1175,0000     1,00178       -3,23          
1180,0000     1,00203       -3,25          
1185,0000     1,00249       -3,24          
1190,0000     1,00272       -3,23          
1195,0000     1,00283       -3,23          
1200,0000     1,00297       -3,21          
1205,0000     1,003         -3,22          
1210,0000     1,0022        -3,20          
1215,0000     1,00233       -3,21          
1220,0000     1,00202       -3,21          
1225,0000     1,00159       -3,22          
1230,0000     1,00111       -3,25          
1235,0000     1,00128       -3,28          
1240,0000     1,00111       -3,29          
1245,0000     1,00138       -3,31          
1250,0000     1,00156       -3,32          
1255,0000     1,00142       -3,34          
1260,0000     1,0015        -3,35          
1265,0000     1,00151       -3,35          
1270,0000     1,00128       -3,38          
1275,0000     1,00131       -3,40          
1280,0000     1,00066       -3,43          
1285,0000     1,00055       -3,46          
1290,0000     0,99998       -3,48          
1295,0000     0,99987       -3,52          
1300,0000     0,99975       -3,54          
1305,0000     0,99985       -3,58          
1310,0000     0,99961       -3,60          
1315,0000     1,0001        -3,62          
1320,0000     1,00038       -3,63          
1325,0000     1,00066       -3,64          
1330,0000     1,00096       -3,64          
1335,0000     1,00132       -3,62          
1340,0000     1,00121       -3,60          
1345,0000     1,00103       -3,62          
1350,0000     1,00116       -3,60          
1355,0000     1,00096       -3,60          
1360,0000     1,00061       -3,61          
1365,0000     1,00051       -3,63          
1370,0000     1,00036       -3,63          
1375,0000     1,00035       -3,65          
1380,0000     0,99995       -3,68          
1385,0000     1,00045       -3,71          
1390,0000     1,00037       -3,73          
1395,0000     1,00058       -3,74          
1400,0000     1,00063       -3,75          
1405,0000     1,00062       -3,75          
1410,0000     1,00087       -3,76          
1415,0000     1,00059       -3,77          
1420,0000     1,00042       -3,78          
1425,0000     1,00026       -3,77          
1430,0000     0,99999       -3,79          
1435,0000     1,00004       -3,79          
1440,0000     0,99996       -3,82          
1445,0000     1,00043       -3,83          
1450,0000     1,00075       -3,84          
1455,0000     1,00083       -3,84          
1460,0000     1,00105       -3,86          
1465,0000     1,00128       -3,88          
1470,0000     1,00214       -3,87          
1475,0000     1,00208       -3,88          
1480,0000     1,00201       -3,86          
1485,0000     1,00206       -3,86          
1490,0000     1,00187       -3,85          
1495,0000     1,00169       -3,86          
1500,0000     1,00063       -4,05          
1505,0000     1,00085       -4,10          
1510,0000     1,00082       -4,13          
1515,0000     1,00068       -4,14          
1520,0000     1,00063       -4,11          
1525,0000     1,00128       -4,07          
1530,0000     1,00234       -4,05          
1535,0000     1,00335       -4,08          
1540,0000     1,00352       -4,09          
1545,0000     1,00381       -4,13          
1550,0000     1,0035        -4,14          
1555,0000     1,00327       -4,13          
1560,0000     1,00326       -4,13          
1565,0000     1,00306       -4,10          
1570,0000     1,00303       -4,07          
1575,0000     1,00344       -4,06          
1580,0000     1,00381       -4,04          
1585,0000     1,00425       -4,07          
1590,0000     1,00396       -4,09          
1595,0000     1,00339       -4,11          
1600,0000     1,00249       -4,13          
1605,0000     1,00129       -4,15          
1610,0000     1,00041       -4,15          
1615,0000     1,00002       -4,12          
1620,0000     0,99962       -4,12          
1625,0000     1,00001       -4,15          
1630,0000     1,00045       -4,21          
1635,0000     1,00049       -4,29          
1640,0000     1,00089       -4,37          
1645,0000     1,00064       -4,43          
1650,0000     1,00046       -4,45          
1655,0000     0,9999        -4,44          
1660,0000     1,00035       -4,39          
1665,0000     1,00077       -4,35          
1670,0000     1,00173       -4,34          
1675,0000     1,00275       -4,37          
1680,0000     1,00313       -4,41          
1685,0000     1,00309       -4,45          
1690,0000     1,00308       -4,47          
1695,0000     1,00319       -4,48          
1700,0000     1,00286       -4,48          
1705,0000     1,0025        -4,47          
1710,0000     1,00278       -4,46          
1715,0000     1,00273       -4,44          
1720,0000     1,00308       -4,46          
1725,0000     1,00342       -4,48          
1730,0000     1,00381       -4,49          
1735,0000     1,0033        -4,51          
1740,0000     1,00262       -4,51          
1745,0000     1,00162       -4,51          
1750,0000     1,001         -4,51          
1755,0000     1,00054       -4,49          
1760,0000     1,0004        -4,47          
1765,0000     1,00065       -4,50          
1770,0000     1,00066       -4,53          
1775,0000     1,0009        -4,61          
1780,0000     1,00048       -4,68          
1785,0000     1,00009       -4,76          
1790,0000     0,99966       -4,79          
1795,0000     0,99939       -4,80          
1800,0000     0,99967       -4,75          
1805,0000     1,00022       -4,71          
1810,0000     1,00087       -4,71          
1815,0000     1,00174       -4,73          
1820,0000     1,00216       -4,78          
1825,0000     1,00224       -4,82          
1830,0000     1,00215       -4,86          
1835,0000     1,0021        -4,89          
1840,0000     1,00195       -4,86          
1845,0000     1,00182       -4,84          
1850,0000     1,00161       -4,84          
1855,0000     1,00173       -4,82          
1860,0000     1,00169       -4,82          
1865,0000     1,00206       -4,85          
1870,0000     1,00232       -4,86          
1875,0000     1,00249       -4,88          
1880,0000     1,00232       -4,91          
1885,0000     1,00164       -4,93          
1890,0000     1,00086       -4,90          
1895,0000     1,00048       -4,87          
1900,0000     1,00038       -4,86          
1905,0000     1,0004        -4,86          
1910,0000     1,00062       -4,91          
1915,0000     1,00055       -4,94          
1920,0000     1,00042       -5,03          
1925,0000     1,00004       -5,09          
1930,0000     0,99961       -5,11          
1935,0000     0,99918       -5,13          
1940,0000     0,99928       -5,10          
1945,0000     1,00007       -5,08          
1950,0000     1,00064       -5,09          
1955,0000     1,00123       -5,11          
1960,0000     1,00149       -5,15          
1965,0000     1,00115       -5,17          
1970,0000     1,00119       -5,21          
1975,0000     1,00114       -5,25          
1980,0000     1,00112       -5,23          
1985,0000     1,0012        -5,22          
1990,0000     1,00101       -5,21          
1995,0000     1,00119       -5,18          
2000,0000     1,00113       -5,22          
2005,0000     1,00126       -5,23          
2010,0000     1,00121       -5,27          
2015,0000     1,00176       -5,30          
2020,0000     1,00188       -5,30          
2025,0000     1,00225       -5,31          
2030,0000     1,00175       -5,30          
2035,0000     1,00122       -5,26          
2040,0000     1,00083       -5,25          
2045,0000     1,00134       -5,23          
2050,0000     1,00117       -5,28          
2055,0000     1,00118       -5,33          
2060,0000     1,00125       -5,37          
2065,0000     1,00081       -5,40          
2070,0000     1,00041       -5,43          
2075,0000     1,00043       -5,46          
2080,0000     1,00008       -5,48          
2085,0000     1,00046       -5,48          
2090,0000     1,00042       -5,49          
2095,0000     1,00063       -5,49          
2100,0000     1,00083       -5,54          
2105,0000     1,0009        -5,56          
2110,0000     1,00121       -5,56          
2115,0000     1,00121       -5,59          
2120,0000     1,00161       -5,59          
2125,0000     1,00145       -5,59          
2130,0000     1,00164       -5,59          
2135,0000     1,00147       -5,59          
2140,0000     1,0013        -5,58          
2145,0000     1,00145       -5,62          
2150,0000     1,00112       -5,66          
2155,0000     1,00076       -5,69          
2160,0000     1,00083       -5,71          
2165,0000     1,00101       -5,73          
2170,0000     1,00121       -5,72          
2175,0000     1,00108       -5,72          
2180,0000     1,00059       -5,70          
2185,0000     1,00054       -5,67          
2190,0000     1,00087       -5,67          
2195,0000     1,00095       -5,70          
2200,0000     1,00095       -5,74          
2205,0000     1,00105       -5,78          
2210,0000     1,00075       -5,83          
2215,0000     1,00087       -5,87          
2220,0000     1,00096       -5,90          
2225,0000     1,00066       -5,90          
2230,0000     1,00042       -5,90          
2235,0000     1,00046       -5,89          
2240,0000     1,00057       -5,89          
2245,0000     1,00103       -5,87          
2250,0000     1,00125       -5,90          
2255,0000     1,00128       -5,90          
2260,0000     1,0014        -5,89          
2265,0000     1,00142       -5,90          
2270,0000     1,00154       -5,91          
2275,0000     1,0012        -5,93          
2280,0000     1,00105       -5,94          
2285,0000     1,00088       -5,96          
2290,0000     1,00078       -6,01          
2295,0000     1,00082       -6,05          
2300,0000     1,00075       -6,08          
2305,0000     1,00099       -6,10          
2310,0000     1,00122       -6,11          
2315,0000     1,00135       -6,11          
2320,0000     1,00126       -6,10          
2325,0000     1,00139       -6,08          
2330,0000     1,00128       -6,07          
2335,0000     1,00135       -6,08          
2340,0000     1,00154       -6,13          
2345,0000     1,00136       -6,15          
2350,0000     1,00112       -6,19          
2355,0000     1,001         -6,23          
2360,0000     1,00133       -6,27          
2365,0000     1,00093       -6,29          
2370,0000     1,00093       -6,30          
2375,0000     1,00087       -6,29          
2380,0000     1,00079       -6,25          
2385,0000     1,00077       -6,23          
2390,0000     1,00096       -6,22          
2395,0000     1,00105       -6,23          
2400,0000     1,00096       -6,22          
2405,0000     1,00097       -6,24          
2410,0000     1,0008        -6,24          
2415,0000     1,00073       -6,26          
2420,0000     1,0004        -6,28          
2425,0000     1,00006       -6,29          
2430,0000     0,99994       -6,30          
2435,0000     0,99987       -6,32          
2440,0000     1,00002       -6,36          
2445,0000     1,00011       -6,40          
2450,0000     1,00019       -6,42          
2455,0000     1,00012       -6,42          
2460,0000     1,00024       -6,40          
2465,0000     1,00049       -6,40          
2470,0000     1,00059       -6,39          
2475,0000     1,00049       -6,39          
2480,0000     1,00067       -6,41          
2485,0000     1,00052       -6,43          
2490,0000     1,00052       -6,48          
2495,0000     1,00079       -6,51          
2500,0000     1,00066       -6,54          
2505,0000     1,00057       -6,56          
2510,0000     1,00061       -6,56          
2515,0000     1,00077       -6,57          
2520,0000     1,00067       -6,55          
2525,0000     1,00074       -6,53          
2530,0000     1,00082       -6,52          
2535,0000     1,00069       -6,54          
2540,0000     1,00073       -6,55          
2545,0000     1,0009        -6,56          
2550,0000     1,00094       -6,58          
2555,0000     1,00097       -6,60          
2560,0000     1,00082       -6,61          
2565,0000     1,00078       -6,63          
2570,0000     1,00063       -6,65          
2575,0000     1,00069       -6,67          
2580,0000     1,00058       -6,69          
2585,0000     1,00057       -6,71          
2590,0000     1,00086       -6,74          
2595,0000     1,001         -6,75          
2600,0000     1,00099       -6,76          
2605,0000     1,00095       -6,77          
2610,0000     1,0011        -6,76          
2615,0000     1,00121       -6,78          
2620,0000     1,00121       -6,79          
2625,0000     1,00111       -6,82          
2630,0000     1,00141       -6,86          
2635,0000     1,00118       -6,90          
2640,0000     1,00131       -6,91          
2645,0000     1,00134       -6,96          
2650,0000     1,00107       -6,97          
2655,0000     1,00115       -6,99          
2660,0000     1,00093       -6,99          
2665,0000     1,00124       -7,00          
2670,0000     1,00108       -7,00          
2675,0000     1,0011        -7,00          
2680,0000     1,00113       -6,98          
2685,0000     1,00107       -6,98          
2690,0000     1,00126       -7,00          
2695,0000     1,00092       -7,02          
2700,0000     1,00111       -7,03          
2705,0000     1,00094       -7,04          
2710,0000     1,00097       -7,06          
2715,0000     1,00087       -7,08          
2720,0000     1,00061       -7,09          
2725,0000     1,00062       -7,11          
2730,0000     1,00045       -7,13          
2735,0000     1,00029       -7,13          
2740,0000     1,00051       -7,14          
2745,0000     1,00043       -7,14          
2750,0000     1,00058       -7,14          
2755,0000     1,00052       -7,14          
2760,0000     1,00059       -7,17          
2765,0000     1,00049       -7,19          
2770,0000     1,00037       -7,21          
2775,0000     1,00054       -7,24          
2780,0000     1,0007        -7,27          
2785,0000     1,00094       -7,30          
2790,0000     1,00067       -7,33          
2795,0000     1,00069       -7,36          
2800,0000     1,00104       -7,38          
2805,0000     1,0011        -7,41          
2810,0000     1,00118       -7,41          
2815,0000     1,00146       -7,39          
2820,0000     1,00126       -7,36          
2825,0000     1,00137       -7,35          
2830,0000     1,00123       -7,37          
2835,0000     1,00132       -7,37          
2840,0000     1,00119       -7,38          
2845,0000     1,00126       -7,41          
2850,0000     1,00129       -7,44          
2855,0000     1,0013        -7,45          
2860,0000     1,00106       -7,46          
2865,0000     1,00087       -7,47          
2870,0000     1,00089       -7,49          
2875,0000     1,00086       -7,49          
2880,0000     1,00076       -7,50          
2885,0000     1,00073       -7,50          
2890,0000     1,00077       -7,50          
2895,0000     1,00075       -7,52          
2900,0000     1,00074       -7,53          
2905,0000     1,0007        -7,56          
2910,0000     1,00076       -7,56          
2915,0000     1,0009        -7,58          
2920,0000     1,00093       -7,60          
2925,0000     1,00079       -7,64          
2930,0000     1,00096       -7,67          
2935,0000     1,00107       -7,69          
2940,0000     1,00118       -7,70          
2945,0000     1,0011        -7,72          
2950,0000     1,00161       -7,74          
2955,0000     1,00125       -7,75          
2960,0000     1,00143       -7,71          
2965,0000     1,0015        -7,69          
2970,0000     1,00143       -7,69          
2975,0000     1,00133       -7,68          
2980,0000     1,00132       -7,69          
2985,0000     1,00133       -7,71          
2990,0000     1,00136       -7,73          
2995,0000     1,00152       -7,73          
3000,0000     1,00146       -7,74          
