!    02.03.2026   11:01:28 
! Ref Plane: 0,000 mm
# MHZ S MA R  50
!
1000,0000     0,96166       -74,00         
1005,0000     0,96206       -81,57         
1010,0000     0,96236       -89,10         
1015,0000     0,96248       -96,66         
1020,0000     0,96214       -104,20        
1025,0000     0,96198       -111,76        
1030,0000     0,96167       -119,31        
1035,0000     0,96113       -126,85        
1040,0000     0,9609        -134,39        
1045,0000     0,96048       -141,93        
1050,0000     0,95982       -149,49        
1055,0000     0,95929       -157,03        
1060,0000     0,95853       -164,56        
1065,0000     0,95747       -172,11        
1070,0000     0,95677       -179,64        
1075,0000     0,95607       172,83         
1080,0000     0,95517       165,29         
1085,0000     0,95488       157,72         
1090,0000     0,95489       150,20         
1095,0000     0,95502       142,70         
1100,0000     0,95469       135,21         
1105,0000     0,95449       127,75         
1110,0000     0,95396       120,29         
1115,0000     0,95311       112,83         
1120,0000     0,95267       105,38         
1125,0000     0,952         97,91          
1130,0000     0,95143       90,44          
1135,0000     0,95083       82,98          
1140,0000     0,95051       75,49          
1145,0000     0,95012       67,99          
1150,0000     0,94977       60,48          
1155,0000     0,94955       52,94          
1160,0000     0,94933       45,38          
1165,0000     0,94954       37,83          
1170,0000     0,94971       30,25          
1175,0000     0,95034       22,66          
1180,0000     0,95088       15,07          
1185,0000     0,95165       7,49           
1190,0000     0,95216       -0,06          
1195,0000     0,95254       -7,65          
1200,0000     0,95283       -15,24         
1205,0000     0,95307       -22,86         
1210,0000     0,95295       -30,45         
1215,0000     0,9531        -38,07         
1220,0000     0,95322       -45,70         
1225,0000     0,95316       -53,35         
1230,0000     0,95321       -61,00         
1235,0000     0,95332       -68,67         
1240,0000     0,95341       -76,32         
1245,0000     0,95348       -84,00         
1250,0000     0,95308       -91,66         
1255,0000     0,95288       -99,34         
1260,0000     0,9526        -107,01        
1265,0000     0,95253       -114,68        
1270,0000     0,95244       -122,35        
1275,0000     0,9525        -129,99        
1280,0000     0,95232       -137,61        
1285,0000     0,95154       -145,23        
1290,0000     0,951         -152,85        
1295,0000     0,95005       -160,45        
1300,0000     0,94938       -168,08        
1305,0000     0,94891       -175,70        
1310,0000     0,94861       176,70         
1315,0000     0,94784       169,09         
1320,0000     0,9474        161,51         
1325,0000     0,94682       153,94         
1330,0000     0,94592       146,35         
1335,0000     0,9452        138,79         
1340,0000     0,94401       131,22         
1345,0000     0,943         123,65         
1350,0000     0,94226       116,09         
1355,0000     0,94145       108,53         
1360,0000     0,94125       100,97         
1365,0000     0,94105       93,44          
1370,0000     0,94063       85,94          
1375,0000     0,94079       78,42          
1380,0000     0,94041       70,90          
1385,0000     0,94064       63,38          
1390,0000     0,94047       55,86          
1395,0000     0,94086       48,37          
1400,0000     0,94118       40,87          
1405,0000     0,9415        33,39          
1410,0000     0,94174       25,91          
1415,0000     0,94211       18,41          
1420,0000     0,94223       10,93          
1425,0000     0,9424        3,46           
1430,0000     0,94247       -4,04          
1435,0000     0,94282       -11,53         
1440,0000     0,94312       -19,06         
1445,0000     0,94399       -26,57         
1450,0000     0,94459       -34,09         
1455,0000     0,94501       -41,61         
1460,0000     0,9455        -49,13         
1465,0000     0,94584       -56,66         
1470,0000     0,94639       -64,20         
1475,0000     0,94626       -71,74         
1480,0000     0,94616       -79,28         
1485,0000     0,94636       -86,85         
1490,0000     0,9461        -94,41         
1495,0000     0,94623       -101,95        
1500,0000     0,946         -109,51        
1505,0000     0,94579       -117,04        
1510,0000     0,94554       -124,57        
1515,0000     0,9454        -132,09        
1520,0000     0,94509       -139,61        
1525,0000     0,94477       -147,14        
1530,0000     0,94385       -154,72        
1535,0000     0,94209       -162,29        
1540,0000     0,94006       -169,85        
1545,0000     0,93822       -177,38        
1550,0000     0,9374        175,06         
1555,0000     0,9369        167,44         
1560,0000     0,93598       159,77         
1565,0000     0,93523       152,11         
1570,0000     0,93428       144,49         
1575,0000     0,93327       136,91         
1580,0000     0,93295       129,35         
1585,0000     0,93287       121,79         
1590,0000     0,93273       114,22         
1595,0000     0,93265       106,67         
1600,0000     0,93268       99,07          
1605,0000     0,93246       91,49          
1610,0000     0,93216       83,94          
1615,0000     0,93203       76,38          
1620,0000     0,9318        68,82          
1625,0000     0,93142       61,29          
1630,0000     0,93137       53,73          
1635,0000     0,93148       46,14          
1640,0000     0,93197       38,52          
1645,0000     0,93192       30,86          
1650,0000     0,93209       23,21          
1655,0000     0,93202       15,57          
1660,0000     0,93258       8,00           
1665,0000     0,93326       0,42           
1670,0000     0,93456       -7,19          
1675,0000     0,93589       -14,86         
1680,0000     0,93635       -22,52         
1685,0000     0,93633       -30,21         
1690,0000     0,93609       -37,87         
1695,0000     0,93644       -45,51         
1700,0000     0,93705       -53,13         
1705,0000     0,93781       -60,78         
1710,0000     0,93821       -68,44         
1715,0000     0,9379        -76,08         
1720,0000     0,93693       -83,73         
1725,0000     0,93577       -91,36         
1730,0000     0,93513       -98,95         
1735,0000     0,93457       -106,59        
1740,0000     0,93423       -114,22        
1745,0000     0,93389       -121,84        
1750,0000     0,93355       -129,46        
1755,0000     0,93309       -137,04        
1760,0000     0,93297       -144,67        
1765,0000     0,93274       -152,25        
1770,0000     0,93227       -159,81        
1775,0000     0,9311        -167,36        
1780,0000     0,93077       -174,90        
1785,0000     0,93032       177,58         
1790,0000     0,93005       170,05         
1795,0000     0,93017       162,51         
1800,0000     0,92923       154,95         
1805,0000     0,92779       147,46         
1810,0000     0,92628       139,98         
1815,0000     0,92489       132,50         
1820,0000     0,92434       125,02         
1825,0000     0,92349       117,46         
1830,0000     0,92283       109,91         
1835,0000     0,92252       102,36         
1840,0000     0,92162       94,87          
1845,0000     0,92142       87,38          
1850,0000     0,92154       79,90          
1855,0000     0,92179       72,38          
1860,0000     0,92238       64,88          
1865,0000     0,92287       57,37          
1870,0000     0,92296       49,85          
1875,0000     0,9233        42,35          
1880,0000     0,92405       34,82          
1885,0000     0,92474       27,27          
1890,0000     0,92474       19,74          
1895,0000     0,92445       12,24          
1900,0000     0,92444       4,71           
1905,0000     0,92465       -2,83          
1910,0000     0,92528       -10,47         
1915,0000     0,92522       -18,10         
1920,0000     0,92474       -25,75         
1925,0000     0,92477       -33,37         
1930,0000     0,92505       -40,97         
1935,0000     0,92538       -48,57         
1940,0000     0,92603       -56,16         
1945,0000     0,92729       -63,78         
1950,0000     0,92762       -71,42         
1955,0000     0,92765       -79,03         
1960,0000     0,927         -86,64         
1965,0000     0,92625       -94,19         
1970,0000     0,92602       -101,74        
1975,0000     0,92648       -109,31        
1980,0000     0,92684       -116,89        
1985,0000     0,92629       -124,44        
1990,0000     0,92552       -131,97        
1995,0000     0,92468       -139,50        
2000,0000     0,92402       -147,04        
2005,0000     0,92299       -154,58        
2010,0000     0,92231       -162,10        
2015,0000     0,92141       -169,60        
2020,0000     0,92094       -177,11        
2025,0000     0,92055       175,38         
2030,0000     0,92005       167,87         
2035,0000     0,91943       160,32         
2040,0000     0,91815       152,82         
2045,0000     0,91724       145,35         
2050,0000     0,91646       137,90         
2055,0000     0,91642       130,44         
2060,0000     0,91632       122,96         
2065,0000     0,91653       115,47         
2070,0000     0,91586       107,95         
2075,0000     0,91542       100,53         
2080,0000     0,91475       93,05          
2085,0000     0,91473       85,57          
2090,0000     0,91417       78,07          
2095,0000     0,91403       70,55          
2100,0000     0,91389       63,00          
2105,0000     0,91355       55,47          
2110,0000     0,91325       47,94          
2115,0000     0,91314       40,39          
2120,0000     0,91345       32,81          
2125,0000     0,91364       25,21          
2130,0000     0,91374       17,58          
2135,0000     0,91393       9,95           
2140,0000     0,91403       2,31           
2145,0000     0,91439       -5,36          
2150,0000     0,91425       -13,07         
2155,0000     0,91449       -20,75         
2160,0000     0,91486       -28,44         
2165,0000     0,91481       -36,11         
2170,0000     0,91484       -43,76         
2175,0000     0,91481       -51,46         
2180,0000     0,91488       -59,14         
2185,0000     0,91473       -66,83         
2190,0000     0,91445       -74,56         
2195,0000     0,91355       -82,25         
2200,0000     0,91248       -89,92         
2205,0000     0,9122        -97,57         
2210,0000     0,91161       -105,23        
2215,0000     0,9115        -112,88        
2220,0000     0,9112        -120,53        
2225,0000     0,91091       -128,18        
2230,0000     0,91052       -135,79        
2235,0000     0,91019       -143,38        
2240,0000     0,90994       -150,97        
2245,0000     0,90986       -158,56        
2250,0000     0,90952       -166,13        
2255,0000     0,90919       -173,66        
2260,0000     0,90841       178,79         
2265,0000     0,90781       171,25         
2270,0000     0,90745       163,69         
2275,0000     0,90678       156,18         
2280,0000     0,90554       148,61         
2285,0000     0,90467       141,12         
2290,0000     0,90394       133,65         
2295,0000     0,90358       126,14         
2300,0000     0,90354       118,65         
2305,0000     0,90319       111,10         
2310,0000     0,90276       103,54         
2315,0000     0,90213       95,99          
2320,0000     0,90161       88,44          
2325,0000     0,90086       80,92          
2330,0000     0,90115       73,35          
2335,0000     0,90145       65,78          
2340,0000     0,90213       58,20          
2345,0000     0,90247       50,62          
2350,0000     0,90278       43,03          
2355,0000     0,90309       35,42          
2360,0000     0,9033        27,83          
2365,0000     0,90304       20,19          
2370,0000     0,90302       12,59          
2375,0000     0,90325       4,99           
2380,0000     0,90298       -2,61          
2385,0000     0,90315       -10,22         
2390,0000     0,90338       -17,86         
2395,0000     0,90341       -25,51         
2400,0000     0,90357       -33,14         
2405,0000     0,90351       -40,80         
2410,0000     0,90311       -48,42         
2415,0000     0,90304       -56,08         
2420,0000     0,90294       -63,73         
2425,0000     0,90301       -71,38         
2430,0000     0,903         -78,99         
2435,0000     0,90278       -86,58         
2440,0000     0,90241       -94,14         
2445,0000     0,90214       -101,67        
2450,0000     0,90173       -109,19        
2455,0000     0,90148       -116,73        
2460,0000     0,90135       -124,27        
2465,0000     0,90063       -131,80        
2470,0000     0,89986       -139,25        
2475,0000     0,89885       -146,69        
2480,0000     0,89813       -154,13        
2485,0000     0,89724       -161,57        
2490,0000     0,89676       -169,02        
2495,0000     0,89608       -176,45        
2500,0000     0,89528       176,11         
2505,0000     0,89457       168,70         
2510,0000     0,89417       161,25         
2515,0000     0,89378       153,81         
2520,0000     0,89319       146,36         
2525,0000     0,89231       138,93         
2530,0000     0,89203       131,50         
2535,0000     0,89187       124,08         
2540,0000     0,8917        116,61         
2545,0000     0,89115       109,11         
2550,0000     0,89035       101,57         
2555,0000     0,88954       94,05          
2560,0000     0,88843       86,52          
2565,0000     0,88858       78,99          
2570,0000     0,8885        71,41          
2575,0000     0,8887        63,79          
2580,0000     0,88891       56,12          
2585,0000     0,88882       48,46          
2590,0000     0,88856       40,80          
2595,0000     0,88785       33,11          
2600,0000     0,88757       25,38          
2605,0000     0,88722       17,61          
2610,0000     0,88716       9,82           
2615,0000     0,88694       2,01           
2620,0000     0,88653       -5,81          
2625,0000     0,88637       -13,68         
2630,0000     0,88594       -21,57         
2635,0000     0,88553       -29,47         
2640,0000     0,885         -37,38         
2645,0000     0,88449       -45,27         
2650,0000     0,88401       -53,13         
2655,0000     0,884         -60,96         
2660,0000     0,88418       -68,80         
2665,0000     0,88444       -76,66         
2670,0000     0,88397       -84,47         
2675,0000     0,88375       -92,26         
2680,0000     0,88365       -99,98         
2685,0000     0,88362       -107,65        
2690,0000     0,88366       -115,35        
2695,0000     0,88351       -123,00        
2700,0000     0,88344       -130,64        
2705,0000     0,88289       -138,24        
2710,0000     0,88266       -145,79        
2715,0000     0,88224       -153,29        
2720,0000     0,88225       -160,77        
2725,0000     0,88237       -168,23        
2730,0000     0,88224       -175,70        
2735,0000     0,88177       176,85         
2740,0000     0,88173       169,43         
2745,0000     0,88125       162,05         
2750,0000     0,88115       154,67         
2755,0000     0,88079       147,29         
2760,0000     0,88078       139,93         
2765,0000     0,88032       132,61         
2770,0000     0,87998       125,29         
2775,0000     0,8797        117,95         
2780,0000     0,87935       110,57         
2785,0000     0,87915       103,18         
2790,0000     0,87845       95,79          
2795,0000     0,87813       88,40          
2800,0000     0,87804       81,03          
2805,0000     0,87851       73,61          
2810,0000     0,87874       66,15          
2815,0000     0,87874       58,67          
2820,0000     0,87773       51,13          
2825,0000     0,877         43,61          
2830,0000     0,87615       36,09          
2835,0000     0,87555       28,55          
2840,0000     0,87527       20,93          
2845,0000     0,87496       13,27          
2850,0000     0,87482       5,57           
2855,0000     0,87455       -2,14          
2860,0000     0,87378       -9,82          
2865,0000     0,87302       -17,55         
2870,0000     0,87235       -25,31         
2875,0000     0,87168       -33,05         
2880,0000     0,87126       -40,83         
2885,0000     0,87076       -48,60         
2890,0000     0,87024       -56,36         
2895,0000     0,86964       -64,14         
2900,0000     0,86947       -71,94         
2905,0000     0,86828       -79,72         
2910,0000     0,86765       -87,50         
2915,0000     0,86694       -95,20         
2920,0000     0,8663        -102,87        
2925,0000     0,8664        -110,52        
2930,0000     0,86638       -118,20        
2935,0000     0,86636       -125,84        
2940,0000     0,86632       -133,46        
2945,0000     0,86601       -141,01        
2950,0000     0,86579       -148,53        
2955,0000     0,86572       -156,01        
2960,0000     0,86565       -163,49        
2965,0000     0,86572       -170,96        
2970,0000     0,86561       -178,40        
2975,0000     0,86521       174,16         
2980,0000     0,86478       166,75         
2985,0000     0,86458       159,36         
2990,0000     0,86439       151,95         
2995,0000     0,86415       144,55         
3000,0000     0,86402       137,16         
