!    02.03.2026   11:04:29 
! Ref Plane: 0,000 mm
# MHZ S MA R  50
!
1000,0000     0,96422       -70,42         
1005,0000     0,96453       -78,05         
1010,0000     0,96469       -85,66         
1015,0000     0,9647        -93,26         
1020,0000     0,96426       -100,87        
1025,0000     0,96392       -108,48        
1030,0000     0,96353       -116,10        
1035,0000     0,96275       -123,70        
1040,0000     0,9624        -131,29        
1045,0000     0,96172       -138,89        
1050,0000     0,96098       -146,49        
1055,0000     0,96012       -154,09        
1060,0000     0,95918       -161,66        
1065,0000     0,95809       -169,24        
1070,0000     0,95715       -176,82        
1075,0000     0,9563        175,62         
1080,0000     0,95541       168,06         
1085,0000     0,95494       160,45         
1090,0000     0,95496       152,91         
1095,0000     0,95497       145,40         
1100,0000     0,95488       137,89         
1105,0000     0,95475       130,41         
1110,0000     0,95423       122,95         
1115,0000     0,9536        115,48         
1120,0000     0,95328       108,02         
1125,0000     0,95272       100,54         
1130,0000     0,95234       93,08          
1135,0000     0,95216       85,62          
1140,0000     0,95198       78,12          
1145,0000     0,95169       70,63          
1150,0000     0,95156       63,11          
1155,0000     0,95157       55,59          
1160,0000     0,95176       48,03          
1165,0000     0,95202       40,48          
1170,0000     0,95238       32,91          
1175,0000     0,95329       25,32          
1180,0000     0,95402       17,74          
1185,0000     0,955         10,18          
1190,0000     0,95594       2,64           
1195,0000     0,9566        -4,92          
1200,0000     0,95703       -12,49         
1205,0000     0,9574        -20,07         
1210,0000     0,9573        -27,63         
1215,0000     0,9577        -35,21         
1220,0000     0,95793       -42,80         
1225,0000     0,95773       -50,42         
1230,0000     0,95794       -58,00         
1235,0000     0,95817       -65,61         
1240,0000     0,95825       -73,21         
1245,0000     0,95796       -80,80         
1250,0000     0,95763       -88,40         
1255,0000     0,95748       -95,99         
1260,0000     0,95715       -103,58        
1265,0000     0,95688       -111,15        
1270,0000     0,95659       -118,72        
1275,0000     0,95656       -126,25        
1280,0000     0,95597       -133,75        
1285,0000     0,95525       -141,25        
1290,0000     0,95458       -148,74        
1295,0000     0,95363       -156,21        
1300,0000     0,95271       -163,70        
1305,0000     0,95231       -171,17        
1310,0000     0,95171       -178,64        
1315,0000     0,951         173,89         
1320,0000     0,95037       166,44         
1325,0000     0,94991       159,00         
1330,0000     0,94907       151,54         
1335,0000     0,94838       144,09         
1340,0000     0,94723       136,65         
1345,0000     0,94632       129,18         
1350,0000     0,94549       121,72         
1355,0000     0,94472       114,24         
1360,0000     0,94431       106,74         
1365,0000     0,94426       99,26          
1370,0000     0,94399       91,80          
1375,0000     0,94408       84,30          
1380,0000     0,94389       76,79          
1385,0000     0,94394       69,28          
1390,0000     0,94398       61,75          
1395,0000     0,94447       54,22          
1400,0000     0,94478       46,68          
1405,0000     0,94508       39,14          
1410,0000     0,94555       31,60          
1415,0000     0,94584       24,02          
1420,0000     0,94613       16,44          
1425,0000     0,94633       8,86           
1430,0000     0,94633       1,25           
1435,0000     0,9466        -6,36          
1440,0000     0,94691       -14,03         
1445,0000     0,94767       -21,67         
1450,0000     0,94839       -29,34         
1455,0000     0,9488        -37,00         
1460,0000     0,94907       -44,67         
1465,0000     0,94928       -52,34         
1470,0000     0,94994       -60,01         
1475,0000     0,94976       -67,68         
1480,0000     0,94949       -75,36         
1485,0000     0,94955       -83,05         
1490,0000     0,9494        -90,71         
1495,0000     0,9494        -98,35         
1500,0000     0,94927       -105,99        
1505,0000     0,9489        -113,59        
1510,0000     0,94862       -121,18        
1515,0000     0,94845       -128,74        
1520,0000     0,94766       -136,28        
1525,0000     0,94736       -143,80        
1530,0000     0,94706       -151,34        
1535,0000     0,94552       -158,90        
1540,0000     0,94336       -166,41        
1545,0000     0,94142       -173,90        
1550,0000     0,94038       178,62         
1555,0000     0,94021       171,10         
1560,0000     0,93973       163,53         
1565,0000     0,93938       155,95         
1570,0000     0,93838       148,43         
1575,0000     0,93754       140,96         
1580,0000     0,93742       133,53         
1585,0000     0,93765       126,08         
1590,0000     0,93802       118,64         
1595,0000     0,93836       111,21         
1600,0000     0,93848       103,72         
1605,0000     0,93856       96,25          
1610,0000     0,93827       88,81          
1615,0000     0,9386        81,37          
1620,0000     0,9386        73,91          
1625,0000     0,93883       66,46          
1630,0000     0,93843       58,99          
1635,0000     0,93843       51,48          
1640,0000     0,93912       43,96          
1645,0000     0,9395        36,38          
1650,0000     0,93992       28,78          
1655,0000     0,93993       21,17          
1660,0000     0,94033       13,63          
1665,0000     0,94054       6,09           
1670,0000     0,94177       -1,48          
1675,0000     0,94335       -9,13          
1680,0000     0,94379       -16,79         
1685,0000     0,94388       -24,47         
1690,0000     0,94389       -32,14         
1695,0000     0,94378       -39,78         
1700,0000     0,94421       -47,39         
1705,0000     0,94485       -55,02         
1710,0000     0,94587       -62,68         
1715,0000     0,94521       -70,33         
1720,0000     0,94391       -77,96         
1725,0000     0,94256       -85,57         
1730,0000     0,94185       -93,13         
1735,0000     0,94136       -100,72        
1740,0000     0,94075       -108,34        
1745,0000     0,93996       -115,93        
1750,0000     0,93947       -123,48        
1755,0000     0,93906       -131,02        
1760,0000     0,93869       -138,55        
1765,0000     0,93857       -146,06        
1770,0000     0,93827       -153,55        
1775,0000     0,93757       -161,02        
1780,0000     0,93686       -168,47        
1785,0000     0,93637       -175,90        
1790,0000     0,93599       176,69         
1795,0000     0,93621       169,23         
1800,0000     0,93604       161,78         
1805,0000     0,93462       154,35         
1810,0000     0,93331       146,98         
1815,0000     0,93177       139,59         
1820,0000     0,93138       132,21         
1825,0000     0,93113       124,73         
1830,0000     0,93046       117,24         
1835,0000     0,92978       109,75         
1840,0000     0,92903       102,29         
1845,0000     0,92883       94,86          
1850,0000     0,92888       87,40          
1855,0000     0,92943       79,91          
1860,0000     0,93005       72,39          
1865,0000     0,93063       64,88          
1870,0000     0,93078       57,35          
1875,0000     0,9309        49,81          
1880,0000     0,93143       42,25          
1885,0000     0,93209       34,66          
1890,0000     0,93237       27,07          
1895,0000     0,93193       19,49          
1900,0000     0,93148       11,89          
1905,0000     0,93164       4,29           
1910,0000     0,93222       -3,41          
1915,0000     0,93211       -11,12         
1920,0000     0,9314        -18,87         
1925,0000     0,931         -26,58         
1930,0000     0,93091       -34,27         
1935,0000     0,93113       -41,94         
1940,0000     0,93155       -49,59         
1945,0000     0,9327        -57,28         
1950,0000     0,93312       -64,99         
1955,0000     0,93302       -72,66         
1960,0000     0,93224       -80,31         
1965,0000     0,93123       -87,89         
1970,0000     0,93082       -95,46         
1975,0000     0,93116       -103,04        
1980,0000     0,93187       -110,62        
1985,0000     0,93128       -118,15        
1990,0000     0,93051       -125,65        
1995,0000     0,92965       -133,12        
2000,0000     0,92906       -140,62        
2005,0000     0,92839       -148,09        
2010,0000     0,92788       -155,56        
2015,0000     0,92726       -162,97        
2020,0000     0,92679       -170,40        
2025,0000     0,92665       -177,81        
2030,0000     0,92663       174,78         
2035,0000     0,92634       167,34         
2040,0000     0,92557       159,93         
2045,0000     0,92521       152,55         
2050,0000     0,9248        145,20         
2055,0000     0,92508       137,85         
2060,0000     0,9255        130,47         
2065,0000     0,92603       123,06         
2070,0000     0,92607       115,65         
2075,0000     0,92602       108,27         
2080,0000     0,92541       100,88         
2085,0000     0,92548       93,47          
2090,0000     0,92541       86,02          
2095,0000     0,92554       78,57          
2100,0000     0,92546       71,04          
2105,0000     0,92524       63,52          
2110,0000     0,92467       55,99          
2115,0000     0,92459       48,46          
2120,0000     0,92464       40,88          
2125,0000     0,92473       33,26          
2130,0000     0,92484       25,61          
2135,0000     0,92479       17,95          
2140,0000     0,92469       10,27          
2145,0000     0,9249        2,56           
2150,0000     0,92481       -5,17          
2155,0000     0,92468       -12,91         
2160,0000     0,92497       -20,64         
2165,0000     0,92465       -28,34         
2170,0000     0,92456       -36,02         
2175,0000     0,92411       -43,73         
2180,0000     0,92405       -51,43         
2185,0000     0,92385       -59,12         
2190,0000     0,92351       -66,84         
2195,0000     0,92266       -74,53         
2200,0000     0,92161       -82,19         
2205,0000     0,92088       -89,80         
2210,0000     0,92027       -97,39         
2215,0000     0,92029       -105,00        
2220,0000     0,92009       -112,57        
2225,0000     0,92002       -120,14        
2230,0000     0,91982       -127,66        
2235,0000     0,91945       -135,16        
2240,0000     0,91955       -142,64        
2245,0000     0,91997       -150,11        
2250,0000     0,92003       -157,55        
2255,0000     0,92019       -164,97        
2260,0000     0,91997       -172,36        
2265,0000     0,92012       -179,75        
2270,0000     0,92002       172,87         
2275,0000     0,91996       165,48         
2280,0000     0,91928       158,08         
2285,0000     0,919         150,73         
2290,0000     0,91844       143,40         
2295,0000     0,91844       136,05         
2300,0000     0,91865       128,69         
2305,0000     0,91867       121,27         
2310,0000     0,91849       113,82         
2315,0000     0,91804       106,37         
2320,0000     0,91775       98,90          
2325,0000     0,91699       91,44          
2330,0000     0,91733       83,93          
2335,0000     0,91734       76,39          
2340,0000     0,91813       68,84          
2345,0000     0,91859       61,27          
2350,0000     0,91889       53,67          
2355,0000     0,91913       46,04          
2360,0000     0,91933       38,41          
2365,0000     0,91946       30,72          
2370,0000     0,91928       23,04          
2375,0000     0,91917       15,34          
2380,0000     0,91891       7,66           
2385,0000     0,91877       -0,02          
2390,0000     0,91882       -7,74          
2395,0000     0,91885       -15,48         
2400,0000     0,91889       -23,23         
2405,0000     0,91904       -30,99         
2410,0000     0,91882       -38,71         
2415,0000     0,91854       -46,47         
2420,0000     0,91869       -54,22         
2425,0000     0,91894       -61,98         
2430,0000     0,91929       -69,69         
2435,0000     0,91923       -77,36         
2440,0000     0,9195        -85,00         
2445,0000     0,91953       -92,59         
2450,0000     0,91953       -100,16        
2455,0000     0,91978       -107,74        
2460,0000     0,92009       -115,29        
2465,0000     0,92005       -122,84        
2470,0000     0,91981       -130,29        
2475,0000     0,91952       -137,70        
2480,0000     0,91902       -145,08        
2485,0000     0,91885       -152,45        
2490,0000     0,91888       -159,83        
2495,0000     0,91893       -167,17        
2500,0000     0,91875       -174,49        
2505,0000     0,91853       178,21         
2510,0000     0,91878       170,92         
2515,0000     0,91872       163,62         
2520,0000     0,91884       156,33         
2525,0000     0,91841       149,06         
2530,0000     0,91825       141,80         
2535,0000     0,91862       134,54         
2540,0000     0,9186        127,26         
2545,0000     0,91857       119,95         
2550,0000     0,91803       112,58         
2555,0000     0,91764       105,21         
2560,0000     0,91666       97,84          
2565,0000     0,91666       90,49          
2570,0000     0,91668       83,08          
2575,0000     0,91698       75,63          
2580,0000     0,9172        68,10          
2585,0000     0,91722       60,58          
2590,0000     0,91728       53,04          
2595,0000     0,91645       45,48          
2600,0000     0,91602       37,89          
2605,0000     0,91564       30,25          
2610,0000     0,91556       22,56          
2615,0000     0,91541       14,84          
2620,0000     0,91522       7,10           
2625,0000     0,91504       -0,69          
2630,0000     0,91514       -8,51          
2635,0000     0,91465       -16,35         
2640,0000     0,91438       -24,21         
2645,0000     0,91417       -32,09         
2650,0000     0,9137        -39,93         
2655,0000     0,9137        -47,75         
2660,0000     0,91403       -55,58         
2665,0000     0,91438       -63,44         
2670,0000     0,91436       -71,29         
2675,0000     0,91436       -79,11         
2680,0000     0,91456       -86,84         
2685,0000     0,91483       -94,53         
2690,0000     0,91493       -102,27        
2695,0000     0,91508       -109,93        
2700,0000     0,91532       -117,59        
2705,0000     0,91525       -125,21        
2710,0000     0,915         -132,76        
2715,0000     0,91476       -140,29        
2720,0000     0,91494       -147,75        
2725,0000     0,91537       -155,19        
2730,0000     0,91553       -162,64        
2735,0000     0,91556       -170,08        
2740,0000     0,91564       -177,46        
2745,0000     0,91529       175,19         
2750,0000     0,91518       167,87         
2755,0000     0,91496       160,53         
2760,0000     0,91504       153,21         
2765,0000     0,91458       145,92         
2770,0000     0,9142        138,66         
2775,0000     0,91404       131,38         
2780,0000     0,91372       124,05         
2785,0000     0,91361       116,71         
2790,0000     0,9131        109,37         
2795,0000     0,91278       102,01         
2800,0000     0,91245       94,68          
2805,0000     0,91275       87,31          
2810,0000     0,91307       79,89          
2815,0000     0,91317       72,42          
2820,0000     0,9123        64,93          
2825,0000     0,91186       57,41          
2830,0000     0,91092       49,90          
2835,0000     0,91048       42,40          
2840,0000     0,9102        34,80          
2845,0000     0,9102        27,15          
2850,0000     0,91043       19,45          
2855,0000     0,91036       11,73          
2860,0000     0,91005       4,03           
2865,0000     0,90969       -3,71          
2870,0000     0,90946       -11,48         
2875,0000     0,90915       -19,26         
2880,0000     0,90896       -27,06         
2885,0000     0,90884       -34,87         
2890,0000     0,90874       -42,68         
2895,0000     0,90822       -50,52         
2900,0000     0,90861       -58,36         
2905,0000     0,9081        -66,21         
2910,0000     0,90777       -74,04         
2915,0000     0,90719       -81,82         
2920,0000     0,90696       -89,54         
2925,0000     0,90721       -97,23         
2930,0000     0,90754       -104,94        
2935,0000     0,90793       -112,62        
2940,0000     0,90813       -120,26        
2945,0000     0,90823       -127,84        
2950,0000     0,90825       -135,39        
2955,0000     0,90843       -142,86        
2960,0000     0,90883       -150,32        
2965,0000     0,90923       -157,76        
2970,0000     0,90943       -165,17        
2975,0000     0,90918       -172,58        
2980,0000     0,90903       -179,96        
2985,0000     0,90875       172,71         
2990,0000     0,90875       165,36         
2995,0000     0,90869       158,00         
3000,0000     0,90851       150,66         
