!    02.03.2026   11:03:38 
! Ref Plane: 0,000 mm
# MHZ S MA R  50
!
1000,0000     0,96049       -75,53         
1005,0000     0,96054       -83,20         
1010,0000     0,96075       -90,84         
1015,0000     0,96071       -98,51         
1020,0000     0,96048       -106,19        
1025,0000     0,96004       -113,88        
1030,0000     0,9597        -121,56        
1035,0000     0,95914       -129,24        
1040,0000     0,95891       -136,91        
1045,0000     0,95838       -144,60        
1050,0000     0,9579        -152,28        
1055,0000     0,9572        -159,95        
1060,0000     0,95637       -167,60        
1065,0000     0,95553       -175,25        
1070,0000     0,95456       177,09         
1075,0000     0,95386       169,45         
1080,0000     0,95308       161,82         
1085,0000     0,95258       154,16         
1090,0000     0,95275       146,56         
1095,0000     0,95296       138,99         
1100,0000     0,95262       131,43         
1105,0000     0,95229       123,91         
1110,0000     0,95182       116,40         
1115,0000     0,95118       108,89         
1120,0000     0,9506        101,38         
1125,0000     0,94997       93,88          
1130,0000     0,94945       86,37          
1135,0000     0,94903       78,88          
1140,0000     0,9487        71,36          
1145,0000     0,94839       63,84          
1150,0000     0,94803       56,30          
1155,0000     0,94789       48,74          
1160,0000     0,9477        41,16          
1165,0000     0,94784       33,59          
1170,0000     0,9481        26,00          
1175,0000     0,94868       18,39          
1180,0000     0,94931       10,79          
1185,0000     0,9503        3,22           
1190,0000     0,95076       -4,34          
1195,0000     0,95107       -11,93         
1200,0000     0,95146       -19,52         
1205,0000     0,9516        -27,14         
1210,0000     0,95144       -34,73         
1215,0000     0,95171       -42,34         
1220,0000     0,95179       -49,96         
1225,0000     0,95181       -57,59         
1230,0000     0,95185       -65,21         
1235,0000     0,95215       -72,85         
1240,0000     0,95213       -80,46         
1245,0000     0,95202       -88,07         
1250,0000     0,95184       -95,69         
1255,0000     0,95179       -103,30        
1260,0000     0,9518        -110,89        
1265,0000     0,95148       -118,47        
1270,0000     0,95149       -126,02        
1275,0000     0,95173       -133,54        
1280,0000     0,9515        -141,03        
1285,0000     0,95104       -148,50        
1290,0000     0,95047       -155,98        
1295,0000     0,94956       -163,44        
1300,0000     0,94924       -170,89        
1305,0000     0,9488        -178,34        
1310,0000     0,9485        174,23         
1315,0000     0,94782       166,80         
1320,0000     0,9473        159,38         
1325,0000     0,94676       151,99         
1330,0000     0,94597       144,56         
1335,0000     0,94516       137,16         
1340,0000     0,94388       129,75         
1345,0000     0,94298       122,32         
1350,0000     0,94214       114,90         
1355,0000     0,94126       107,45         
1360,0000     0,94057       100,00         
1365,0000     0,94043       92,53          
1370,0000     0,93993       85,08          
1375,0000     0,93968       77,61          
1380,0000     0,93934       70,11          
1385,0000     0,93913       62,60          
1390,0000     0,93906       55,05          
1395,0000     0,93903       47,50          
1400,0000     0,93922       39,93          
1405,0000     0,93923       32,36          
1410,0000     0,93944       24,76          
1415,0000     0,93953       17,13          
1420,0000     0,93948       9,50           
1425,0000     0,93954       1,84           
1430,0000     0,93919       -5,87          
1435,0000     0,93939       -13,57         
1440,0000     0,93969       -21,33         
1445,0000     0,94029       -29,08         
1450,0000     0,94094       -36,85         
1455,0000     0,94131       -44,63         
1460,0000     0,94168       -52,41         
1465,0000     0,9417        -60,20         
1470,0000     0,94233       -67,99         
1475,0000     0,94233       -75,76         
1480,0000     0,94235       -83,55         
1485,0000     0,94273       -91,33         
1490,0000     0,94271       -99,08         
1495,0000     0,94291       -106,79        
1500,0000     0,94316       -114,51        
1505,0000     0,94294       -122,16        
1510,0000     0,94297       -129,79        
1515,0000     0,94316       -137,38        
1520,0000     0,94276       -144,96        
1525,0000     0,94285       -152,51        
1530,0000     0,94237       -160,07        
1535,0000     0,94082       -167,63        
1540,0000     0,93882       -175,13        
1545,0000     0,93716       177,40         
1550,0000     0,93672       169,96         
1555,0000     0,93679       162,45         
1560,0000     0,93608       154,89         
1565,0000     0,93554       147,39         
1570,0000     0,93453       139,95         
1575,0000     0,93391       132,54         
1580,0000     0,93403       125,15         
1585,0000     0,93398       117,77         
1590,0000     0,93394       110,39         
1595,0000     0,93393       103,03         
1600,0000     0,93387       95,60          
1605,0000     0,93371       88,20          
1610,0000     0,93352       80,81          
1615,0000     0,93349       73,42          
1620,0000     0,93317       66,00          
1625,0000     0,93241       58,58          
1630,0000     0,9319        51,15          
1635,0000     0,93208       43,65          
1640,0000     0,93245       36,12          
1645,0000     0,93257       28,51          
1650,0000     0,93268       20,88          
1655,0000     0,93228       13,27          
1660,0000     0,93265       5,71           
1665,0000     0,93323       -1,89          
1670,0000     0,93465       -9,55          
1675,0000     0,93568       -17,30         
1680,0000     0,93607       -25,05         
1685,0000     0,93581       -32,82         
1690,0000     0,93557       -40,58         
1695,0000     0,93565       -48,33         
1700,0000     0,93648       -56,07         
1705,0000     0,93717       -63,85         
1710,0000     0,93788       -71,64         
1715,0000     0,93733       -79,42         
1720,0000     0,93622       -87,18         
1725,0000     0,93518       -94,91         
1730,0000     0,9349        -102,62        
1735,0000     0,93455       -110,35        
1740,0000     0,93418       -118,06        
1745,0000     0,9339        -125,74        
1750,0000     0,93375       -133,39        
1755,0000     0,93365       -141,00        
1760,0000     0,93367       -148,63        
1765,0000     0,9336        -156,21        
1770,0000     0,93336       -163,76        
1775,0000     0,93246       -171,26        
1780,0000     0,93224       -178,74        
1785,0000     0,93166       173,82         
1790,0000     0,93182       166,38         
1795,0000     0,9321        158,90         
1800,0000     0,93123       151,47         
1805,0000     0,92951       144,08         
1810,0000     0,92831       136,72         
1815,0000     0,92703       129,38         
1820,0000     0,92644       122,02         
1825,0000     0,92599       114,56         
1830,0000     0,92513       107,13         
1835,0000     0,92434       99,71          
1840,0000     0,92356       92,33          
1845,0000     0,92329       84,95          
1850,0000     0,92338       77,53          
1855,0000     0,92372       70,08          
1860,0000     0,92395       62,62          
1865,0000     0,92409       55,15          
1870,0000     0,92414       47,67          
1875,0000     0,92425       40,17          
1880,0000     0,925         32,60          
1885,0000     0,92555       25,01          
1890,0000     0,92512       17,44          
1895,0000     0,92454       9,85           
1900,0000     0,92447       2,23           
1905,0000     0,92469       -5,44          
1910,0000     0,92532       -13,20         
1915,0000     0,92498       -21,00         
1920,0000     0,92439       -28,80         
1925,0000     0,92435       -36,58         
1930,0000     0,92461       -44,35         
1935,0000     0,92504       -52,14         
1940,0000     0,92595       -59,91         
1945,0000     0,92712       -67,73         
1950,0000     0,92747       -75,56         
1955,0000     0,92748       -83,33         
1960,0000     0,92695       -91,11         
1965,0000     0,92639       -98,83         
1970,0000     0,92646       -106,53        
1975,0000     0,92721       -114,26        
1980,0000     0,92759       -121,93        
1985,0000     0,92686       -129,59        
1990,0000     0,92642       -137,21        
1995,0000     0,92576       -144,82        
2000,0000     0,92525       -152,41        
2005,0000     0,92449       -159,98        
2010,0000     0,92372       -167,54        
2015,0000     0,9232        -175,03        
2020,0000     0,92285       177,48         
2025,0000     0,92276       170,00         
2030,0000     0,92237       162,53         
2035,0000     0,92177       155,04         
2040,0000     0,92059       147,62         
2045,0000     0,91974       140,24         
2050,0000     0,91915       132,89         
2055,0000     0,9194        125,52         
2060,0000     0,91953       118,14         
2065,0000     0,91978       110,74         
2070,0000     0,91913       103,36         
2075,0000     0,91866       96,02          
2080,0000     0,91808       88,65          
2085,0000     0,91786       81,25          
2090,0000     0,91765       73,83          
2095,0000     0,91733       66,39          
2100,0000     0,91715       58,91          
2105,0000     0,91667       51,43          
2110,0000     0,91655       43,93          
2115,0000     0,91655       36,41          
2120,0000     0,91683       28,84          
2125,0000     0,91703       21,24          
2130,0000     0,91722       13,60          
2135,0000     0,91732       5,95           
2140,0000     0,91765       -1,73          
2145,0000     0,9181        -9,46          
2150,0000     0,91829       -17,22         
2155,0000     0,91866       -24,96         
2160,0000     0,91906       -32,71         
2165,0000     0,91904       -40,43         
2170,0000     0,91952       -48,16         
2175,0000     0,91952       -55,94         
2180,0000     0,91983       -63,69         
2185,0000     0,91984       -71,46         
2190,0000     0,91963       -79,24         
2195,0000     0,91895       -86,97         
2200,0000     0,91835       -94,67         
2205,0000     0,91814       -102,37        
2210,0000     0,91795       -110,03        
2215,0000     0,91788       -117,71        
2220,0000     0,91775       -125,36        
2225,0000     0,91759       -132,98        
2230,0000     0,91747       -140,56        
2235,0000     0,91725       -148,12        
2240,0000     0,91722       -155,67        
2245,0000     0,91738       -163,18        
2250,0000     0,91721       -170,66        
2255,0000     0,91682       -178,11        
2260,0000     0,91601       174,46         
2265,0000     0,91598       167,01         
2270,0000     0,91519       159,58         
2275,0000     0,91459       152,16         
2280,0000     0,9133        144,75         
2285,0000     0,91239       137,38         
2290,0000     0,91175       130,06         
2295,0000     0,91128       122,68         
2300,0000     0,91102       115,29         
2305,0000     0,91055       107,84         
2310,0000     0,91008       100,39         
2315,0000     0,90918       92,94          
2320,0000     0,90852       85,48          
2325,0000     0,90776       78,01          
2330,0000     0,90788       70,50          
2335,0000     0,90787       62,97          
2340,0000     0,90836       55,42          
2345,0000     0,9086        47,85          
2350,0000     0,90854       40,26          
2355,0000     0,90896       32,62          
2360,0000     0,90905       24,97          
2365,0000     0,90893       17,30          
2370,0000     0,90865       9,63           
2375,0000     0,90873       1,94           
2380,0000     0,90865       -5,72          
2385,0000     0,90859       -13,42         
2390,0000     0,90906       -21,17         
2395,0000     0,90905       -28,93         
2400,0000     0,90929       -36,68         
2405,0000     0,90924       -44,45         
2410,0000     0,90914       -52,18         
2415,0000     0,90926       -59,96         
2420,0000     0,90965       -67,74         
2425,0000     0,90985       -75,51         
2430,0000     0,91013       -83,23         
2435,0000     0,91004       -90,91         
2440,0000     0,91004       -98,56         
2445,0000     0,91039       -106,19        
2450,0000     0,91016       -113,81        
2455,0000     0,9101        -121,43        
2460,0000     0,91007       -129,04        
2465,0000     0,90964       -136,61        
2470,0000     0,90926       -144,08        
2475,0000     0,90869       -151,54        
2480,0000     0,90809       -159,01        
2485,0000     0,90776       -166,47        
2490,0000     0,90737       -173,91        
2495,0000     0,90672       178,68         
2500,0000     0,90616       171,25         
2505,0000     0,90574       163,84         
2510,0000     0,90542       156,43         
2515,0000     0,90517       149,01         
2520,0000     0,90476       141,58         
2525,0000     0,90396       134,20         
2530,0000     0,90352       126,80         
2535,0000     0,90353       119,37         
2540,0000     0,90339       111,92         
2545,0000     0,90283       104,41         
2550,0000     0,90187       96,89          
2555,0000     0,90101       89,38          
2560,0000     0,90016       81,83          
2565,0000     0,90035       74,29          
2570,0000     0,90043       66,68          
2575,0000     0,9008        59,04          
2580,0000     0,901         51,34          
2585,0000     0,9008        43,68          
2590,0000     0,90069       35,97          
2595,0000     0,90034       28,27          
2600,0000     0,90024       20,52          
2605,0000     0,90021       12,74          
2610,0000     0,90045       4,94           
2615,0000     0,90055       -2,86          
2620,0000     0,90067       -10,68         
2625,0000     0,90081       -18,54         
2630,0000     0,90092       -26,39         
2635,0000     0,90079       -34,28         
2640,0000     0,90042       -42,12         
2645,0000     0,90054       -49,93         
2650,0000     0,90075       -57,72         
2655,0000     0,90112       -65,45         
2660,0000     0,90185       -73,22         
2665,0000     0,9023        -80,99         
2670,0000     0,90221       -88,69         
2675,0000     0,90233       -96,34         
2680,0000     0,90239       -103,92        
2685,0000     0,9027        -111,47        
2690,0000     0,90277       -119,05        
2695,0000     0,9028        -126,56        
2700,0000     0,90267       -134,05        
2705,0000     0,90222       -141,49        
2710,0000     0,90201       -148,89        
2715,0000     0,90172       -156,26        
2720,0000     0,90153       -163,60        
2725,0000     0,90152       -170,93        
2730,0000     0,90094       -178,28        
2735,0000     0,90039       174,41         
2740,0000     0,90019       167,12         
2745,0000     0,89976       159,83         
2750,0000     0,89923       152,52         
2755,0000     0,89861       145,19         
2760,0000     0,89806       137,90         
2765,0000     0,89727       130,61         
2770,0000     0,89677       123,31         
2775,0000     0,89636       115,95         
2780,0000     0,8958        108,54         
2785,0000     0,89548       101,10         
2790,0000     0,89463       93,64          
2795,0000     0,89413       86,18          
2800,0000     0,89415       78,71          
2805,0000     0,8946        71,15          
2810,0000     0,89483       63,54          
2815,0000     0,89476       55,91          
2820,0000     0,89396       48,24          
2825,0000     0,89344       40,61          
2830,0000     0,89327       32,95          
2835,0000     0,89306       25,23          
2840,0000     0,89314       17,47          
2845,0000     0,89353       9,67           
2850,0000     0,89371       1,83           
2855,0000     0,89391       -6,00          
2860,0000     0,89372       -13,81         
2865,0000     0,8936        -21,66         
2870,0000     0,89363       -29,51         
2875,0000     0,89349       -37,34         
2880,0000     0,89356       -45,17         
2885,0000     0,8937        -52,99         
2890,0000     0,89396       -60,80         
2895,0000     0,89392       -68,63         
2900,0000     0,89395       -76,43         
2905,0000     0,89337       -84,21         
2910,0000     0,893         -91,98         
2915,0000     0,89241       -99,64         
2920,0000     0,89245       -107,26        
2925,0000     0,89288       -114,86        
2930,0000     0,89285       -122,50        
2935,0000     0,89302       -130,07        
2940,0000     0,89299       -137,61        
2945,0000     0,89256       -145,05        
2950,0000     0,8923        -152,50        
2955,0000     0,89228       -159,92        
2960,0000     0,89201       -167,33        
2965,0000     0,89183       -174,72        
2970,0000     0,8915        177,88         
2975,0000     0,89083       170,49         
2980,0000     0,89015       163,10         
2985,0000     0,88962       155,71         
2990,0000     0,88906       148,30         
2995,0000     0,88855       140,88         
3000,0000     0,88821       133,46         
