!    02.03.2026   10:38:16 
! Ref Plane: 0,000 mm
# MHZ S MA R  50
!
1000,0000     0,99265       174,82         
1005,0000     0,99289       174,34         
1010,0000     0,99266       173,84         
1015,0000     0,99222       173,34         
1020,0000     0,99161       172,83         
1025,0000     0,99144       172,32         
1030,0000     0,99139       171,80         
1035,0000     0,99101       171,29         
1040,0000     0,9911        170,78         
1045,0000     0,99084       170,28         
1050,0000     0,99051       169,76         
1055,0000     0,9902        169,26         
1060,0000     0,99003       168,76         
1065,0000     0,98961       168,25         
1070,0000     0,9893        167,73         
1075,0000     0,98915       167,22         
1080,0000     0,98899       166,70         
1085,0000     0,98916       166,15         
1090,0000     0,98975       165,64         
1095,0000     0,99036       165,13         
1100,0000     0,9911        164,63         
1105,0000     0,99164       164,17         
1110,0000     0,9921        163,69         
1115,0000     0,99221       163,24         
1120,0000     0,99249       162,79         
1125,0000     0,99238       162,34         
1130,0000     0,99238       161,89         
1135,0000     0,99213       161,45         
1140,0000     0,99209       161,01         
1145,0000     0,9917        160,56         
1150,0000     0,99129       160,11         
1155,0000     0,99069       159,64         
1160,0000     0,99043       159,18         
1165,0000     0,99014       158,70         
1170,0000     0,9899        158,25         
1175,0000     0,98971       157,78         
1180,0000     0,98969       157,32         
1185,0000     0,98949       156,85         
1190,0000     0,98948       156,39         
1195,0000     0,98929       155,92         
1200,0000     0,98908       155,44         
1205,0000     0,9888        154,96         
1210,0000     0,98885       154,49         
1215,0000     0,98879       154,01         
1220,0000     0,98874       153,52         
1225,0000     0,98884       153,04         
1230,0000     0,98928       152,55         
1235,0000     0,98971       152,09         
1240,0000     0,99018       151,62         
1245,0000     0,9905        151,19         
1250,0000     0,99031       150,77         
1255,0000     0,9908        150,34         
1260,0000     0,99069       149,92         
1265,0000     0,9905        149,50         
1270,0000     0,99021       149,07         
1275,0000     0,98994       148,65         
1280,0000     0,9899        148,22         
1285,0000     0,98964       147,79         
1290,0000     0,98942       147,35         
1295,0000     0,98912       146,92         
1300,0000     0,98883       146,47         
1305,0000     0,98861       146,03         
1310,0000     0,98871       145,58         
1315,0000     0,98843       145,12         
1320,0000     0,9884        144,68         
1325,0000     0,98846       144,27         
1330,0000     0,98802       143,81         
1335,0000     0,98806       143,39         
1340,0000     0,98745       142,94         
1345,0000     0,98728       142,52         
1350,0000     0,98675       142,08         
1355,0000     0,98648       141,63         
1360,0000     0,98644       141,18         
1365,0000     0,98644       140,74         
1370,0000     0,98649       140,32         
1375,0000     0,98682       139,87         
1380,0000     0,98729       139,44         
1385,0000     0,98742       139,04         
1390,0000     0,98768       138,62         
1395,0000     0,98776       138,21         
1400,0000     0,98793       137,81         
1405,0000     0,98777       137,42         
1410,0000     0,98734       137,01         
1415,0000     0,98734       136,60         
1420,0000     0,98716       136,16         
1425,0000     0,98692       135,73         
1430,0000     0,98648       135,31         
1435,0000     0,98605       134,87         
1440,0000     0,98606       134,44         
1445,0000     0,98555       134,01         
1450,0000     0,98539       133,58         
1455,0000     0,98529       133,15         
1460,0000     0,98541       132,74         
1465,0000     0,98584       132,32         
1470,0000     0,9855        131,90         
1475,0000     0,98582       131,50         
1480,0000     0,98551       131,10         
1485,0000     0,98551       130,69         
1490,0000     0,98532       130,28         
1495,0000     0,98506       129,85         
1500,0000     0,98707       129,47         
1505,0000     0,98678       129,08         
1510,0000     0,98638       128,68         
1515,0000     0,9862        128,29         
1520,0000     0,98551       127,88         
1525,0000     0,98477       127,50         
1530,0000     0,98454       127,10         
1535,0000     0,98418       126,67         
1540,0000     0,98359       126,23         
1545,0000     0,98333       125,80         
1550,0000     0,98329       125,37         
1555,0000     0,98313       124,94         
1560,0000     0,98261       124,50         
1565,0000     0,98236       124,04         
1570,0000     0,98219       123,61         
1575,0000     0,98246       123,19         
1580,0000     0,98259       122,78         
1585,0000     0,98263       122,39         
1590,0000     0,9827        122,00         
1595,0000     0,98312       121,63         
1600,0000     0,98361       121,20         
1605,0000     0,98393       120,78         
1610,0000     0,9837        120,36         
1615,0000     0,98351       119,94         
1620,0000     0,98309       119,54         
1625,0000     0,98329       119,18         
1630,0000     0,98345       118,81         
1635,0000     0,98391       118,42         
1640,0000     0,98456       118,04         
1645,0000     0,98471       117,61         
1650,0000     0,98466       117,22         
1655,0000     0,98418       116,83         
1660,0000     0,98343       116,43         
1665,0000     0,98237       116,06         
1670,0000     0,98151       115,68         
1675,0000     0,98124       115,32         
1680,0000     0,9813        114,90         
1685,0000     0,98147       114,47         
1690,0000     0,98149       114,02         
1695,0000     0,98116       113,56         
1700,0000     0,98073       113,14         
1705,0000     0,98023       112,71         
1710,0000     0,98002       112,29         
1715,0000     0,98034       111,86         
1720,0000     0,98056       111,46         
1725,0000     0,98099       111,06         
1730,0000     0,9819        110,64         
1735,0000     0,98249       110,21         
1740,0000     0,98304       109,78         
1745,0000     0,98325       109,33         
1750,0000     0,98256       108,92         
1755,0000     0,9816        108,51         
1760,0000     0,98094       108,11         
1765,0000     0,98142       107,74         
1770,0000     0,98217       107,31         
1775,0000     0,9823        106,89         
1780,0000     0,98281       106,45         
1785,0000     0,98291       106,01         
1790,0000     0,98222       105,59         
1795,0000     0,98138       105,17         
1800,0000     0,98056       104,79         
1805,0000     0,97999       104,40         
1810,0000     0,97976       104,00         
1815,0000     0,9794        103,61         
1820,0000     0,97925       103,18         
1825,0000     0,97909       102,70         
1830,0000     0,97857       102,24         
1835,0000     0,9782        101,80         
1840,0000     0,97736       101,35         
1845,0000     0,9769        100,92         
1850,0000     0,97657       100,49         
1855,0000     0,97639       100,07         
1860,0000     0,97646       99,63          
1865,0000     0,97691       99,17          
1870,0000     0,97759       98,72          
1875,0000     0,97767       98,28          
1880,0000     0,97801       97,82          
1885,0000     0,97751       97,37          
1890,0000     0,97678       96,94          
1895,0000     0,9756        96,52          
1900,0000     0,97508       96,09          
1905,0000     0,97499       95,67          
1910,0000     0,9754        95,23          
1915,0000     0,97581       94,78          
1920,0000     0,97632       94,32          
1925,0000     0,97585       93,85          
1930,0000     0,97559       93,40          
1935,0000     0,97484       92,96          
1940,0000     0,97393       92,53          
1945,0000     0,97339       92,11          
1950,0000     0,97324       91,65          
1955,0000     0,97298       91,19          
1960,0000     0,97275       90,71          
1965,0000     0,9724        90,22          
1970,0000     0,97167       89,73          
1975,0000     0,97078       89,24          
1980,0000     0,97014       88,74          
1985,0000     0,96946       88,26          
1990,0000     0,96893       87,75          
1995,0000     0,96838       87,29          
2000,0000     0,96838       86,81          
2005,0000     0,96851       86,28          
2010,0000     0,96877       85,76          
2015,0000     0,9684        85,26          
2020,0000     0,96784       84,74          
2025,0000     0,9672        84,26          
2030,0000     0,96647       83,75          
2035,0000     0,96564       83,25          
2040,0000     0,96465       82,75          
2045,0000     0,96417       82,24          
2050,0000     0,96392       81,72          
2055,0000     0,96429       81,17          
2060,0000     0,96365       80,59          
2065,0000     0,96264       80,02          
2070,0000     0,96094       79,49          
2075,0000     0,95979       78,97          
2080,0000     0,95864       78,46          
2085,0000     0,9585        77,91          
2090,0000     0,958         77,34          
2095,0000     0,9567        76,76          
2100,0000     0,95519       76,18          
2105,0000     0,95395       75,65          
2110,0000     0,95306       75,06          
2115,0000     0,95185       74,48          
2120,0000     0,95027       73,86          
2125,0000     0,94896       73,24          
2130,0000     0,94778       72,65          
2135,0000     0,94704       71,98          
2140,0000     0,94601       71,30          
2145,0000     0,9447        70,61          
2150,0000     0,94321       69,90          
2155,0000     0,94154       69,20          
2160,0000     0,94011       68,53          
2165,0000     0,93883       67,83          
2170,0000     0,93709       67,09          
2175,0000     0,93474       66,35          
2180,0000     0,93221       65,62          
2185,0000     0,92962       64,90          
2190,0000     0,92698       64,17          
2195,0000     0,92532       63,41          
2200,0000     0,92433       62,57          
2205,0000     0,92191       61,68          
2210,0000     0,9182        60,83          
2215,0000     0,91446       60,04          
2220,0000     0,91224       59,23          
2225,0000     0,90981       58,33          
2230,0000     0,9059        57,39          
2235,0000     0,90162       56,48          
2240,0000     0,89742       55,56          
2245,0000     0,8931        54,62          
2250,0000     0,88902       53,65          
2255,0000     0,88388       52,59          
2260,0000     0,87812       51,57          
2265,0000     0,87235       50,53          
2270,0000     0,86732       49,49          
2275,0000     0,86335       48,39          
2280,0000     0,85861       47,14          
2285,0000     0,85287       45,80          
2290,0000     0,84508       44,44          
2295,0000     0,83718       43,21          
2300,0000     0,83094       41,90          
2305,0000     0,82468       40,47          
2310,0000     0,81712       38,85          
2315,0000     0,80692       37,17          
2320,0000     0,79481       35,55          
2325,0000     0,7838        33,98          
2330,0000     0,77359       32,25          
2335,0000     0,76221       30,33          
2340,0000     0,74922       28,32          
2345,0000     0,73431       26,24          
2350,0000     0,71817       24,20          
2355,0000     0,70322       22,05          
2360,0000     0,68689       19,60          
2365,0000     0,66715       17,05          
2370,0000     0,64589       14,49          
2375,0000     0,62526       11,82          
2380,0000     0,60303       8,85           
2385,0000     0,57896       5,66           
2390,0000     0,55303       2,22           
2395,0000     0,52513       -1,34          
2400,0000     0,49625       -5,28          
2405,0000     0,46583       -9,36          
2410,0000     0,43567       -13,95         
2415,0000     0,40348       -19,21         
2420,0000     0,37018       -25,25         
2425,0000     0,33482       -31,93         
2430,0000     0,29986       -39,22         
2435,0000     0,27001       -47,60         
2440,0000     0,24264       -58,67         
2445,0000     0,21786       -71,40         
2450,0000     0,20008       -86,90         
2455,0000     0,18907       -103,71        
2460,0000     0,18937       -120,32        
2465,0000     0,20113       -135,79        
2470,0000     0,22189       -149,28        
2475,0000     0,24793       -160,91        
2480,0000     0,27728       -170,43        
2485,0000     0,30878       -178,91        
2490,0000     0,33714       174,03         
2495,0000     0,36664       168,63         
2500,0000     0,40128       163,71         
2505,0000     0,43441       158,59         
2510,0000     0,46359       153,92         
2515,0000     0,48883       149,80         
2520,0000     0,5124        146,39         
2525,0000     0,53856       143,47         
2530,0000     0,56497       140,39         
2535,0000     0,58942       137,44         
2540,0000     0,61172       134,52         
2545,0000     0,63088       131,87         
2550,0000     0,64923       129,50         
2555,0000     0,66801       127,16         
2560,0000     0,68384       124,86         
2565,0000     0,69891       122,70         
2570,0000     0,71208       120,80         
2575,0000     0,72712       118,98         
2580,0000     0,74058       117,13         
2585,0000     0,75411       115,34         
2590,0000     0,76498       113,53         
2595,0000     0,77374       111,93         
2600,0000     0,78266       110,50         
2605,0000     0,79221       109,10         
2610,0000     0,80185       107,70         
2615,0000     0,8105        106,27         
2620,0000     0,81728       104,89         
2625,0000     0,82346       103,65         
2630,0000     0,82884       102,46         
2635,0000     0,835         101,32         
2640,0000     0,84086       100,20         
2645,0000     0,84598       99,10          
2650,0000     0,85113       98,07          
2655,0000     0,85651       97,03          
2660,0000     0,86086       96,01          
2665,0000     0,86507       95,10          
2670,0000     0,87006       94,15          
2675,0000     0,87377       93,18          
2680,0000     0,87641       92,27          
2685,0000     0,8787        91,42          
2690,0000     0,88202       90,65          
2695,0000     0,8859        89,81          
2700,0000     0,88927       88,93          
2705,0000     0,89118       88,06          
2710,0000     0,89329       87,25          
2715,0000     0,89619       86,48          
2720,0000     0,89868       85,73          
2725,0000     0,9019        84,98          
2730,0000     0,90442       84,18          
2735,0000     0,90563       83,49          
2740,0000     0,90714       82,82          
2745,0000     0,90914       82,18          
2750,0000     0,91145       81,55          
2755,0000     0,91378       80,88          
2760,0000     0,91589       80,22          
2765,0000     0,91694       79,59          
2770,0000     0,91869       79,00          
2775,0000     0,92041       78,38          
2780,0000     0,92195       77,74          
2785,0000     0,92317       77,11          
2790,0000     0,92328       76,56          
2795,0000     0,92481       76,04          
2800,0000     0,92656       75,50          
2805,0000     0,92844       74,96          
2810,0000     0,93009       74,39          
2815,0000     0,93114       73,85          
2820,0000     0,93139       73,30          
2825,0000     0,93178       72,77          
2830,0000     0,93236       72,26          
2835,0000     0,93258       71,72          
2840,0000     0,93247       71,19          
2845,0000     0,93293       70,67          
2850,0000     0,93362       70,15          
2855,0000     0,93463       69,63          
2860,0000     0,93577       69,08          
2865,0000     0,93634       68,59          
2870,0000     0,93705       68,08          
2875,0000     0,93746       67,59          
2880,0000     0,93773       67,11          
2885,0000     0,93859       66,66          
2890,0000     0,9395        66,21          
2895,0000     0,94028       65,74          
2900,0000     0,94073       65,28          
2905,0000     0,94118       64,85          
2910,0000     0,94194       64,43          
2915,0000     0,94274       63,98          
2920,0000     0,94293       63,51          
2925,0000     0,94298       63,08          
2930,0000     0,94349       62,68          
2935,0000     0,94434       62,27          
2940,0000     0,94518       61,84          
2945,0000     0,94573       61,40          
2950,0000     0,94551       60,98          
2955,0000     0,9456        60,57          
2960,0000     0,94575       60,19          
2965,0000     0,94564       59,77          
2970,0000     0,94539       59,37          
2975,0000     0,94492       58,97          
2980,0000     0,9441        58,59          
2985,0000     0,94392       58,21          
2990,0000     0,9445        57,82          
2995,0000     0,94504       57,42          
3000,0000     0,94555       57,01          
