!    02.03.2026   10:40:37 
! Ref Plane: 0,000 mm
# MHZ S MA R  50
!
1000,0000     0,99318       175,15         
1005,0000     0,99328       174,66         
1010,0000     0,993         174,17         
1015,0000     0,99251       173,68         
1020,0000     0,99201       173,17         
1025,0000     0,99172       172,68         
1030,0000     0,99181       172,16         
1035,0000     0,99136       171,65         
1040,0000     0,99147       171,13         
1045,0000     0,99121       170,64         
1050,0000     0,99103       170,13         
1055,0000     0,99051       169,62         
1060,0000     0,9903        169,13         
1065,0000     0,98992       168,62         
1070,0000     0,98963       168,10         
1075,0000     0,98952       167,59         
1080,0000     0,98923       167,07         
1085,0000     0,98935       166,53         
1090,0000     0,98977       166,01         
1095,0000     0,99039       165,52         
1100,0000     0,99102       165,02         
1105,0000     0,99175       164,56         
1110,0000     0,99196       164,09         
1115,0000     0,99207       163,65         
1120,0000     0,99246       163,19         
1125,0000     0,99239       162,75         
1130,0000     0,99209       162,31         
1135,0000     0,99188       161,89         
1140,0000     0,99188       161,45         
1145,0000     0,99132       161,01         
1150,0000     0,99088       160,56         
1155,0000     0,99054       160,11         
1160,0000     0,99015       159,65         
1165,0000     0,99007       159,19         
1170,0000     0,98982       158,73         
1175,0000     0,98964       158,28         
1180,0000     0,98967       157,83         
1185,0000     0,98973       157,37         
1190,0000     0,98948       156,90         
1195,0000     0,98923       156,44         
1200,0000     0,98924       155,98         
1205,0000     0,98909       155,50         
1210,0000     0,98913       155,03         
1215,0000     0,98922       154,56         
1220,0000     0,98911       154,06         
1225,0000     0,98931       153,60         
1230,0000     0,98984       153,11         
1235,0000     0,99029       152,64         
1240,0000     0,99089       152,19         
1245,0000     0,99113       151,76         
1250,0000     0,99113       151,34         
1255,0000     0,99153       150,91         
1260,0000     0,99155       150,50         
1265,0000     0,99143       150,08         
1270,0000     0,99125       149,65         
1275,0000     0,99106       149,23         
1280,0000     0,99096       148,81         
1285,0000     0,99069       148,37         
1290,0000     0,99062       147,94         
1295,0000     0,99012       147,51         
1300,0000     0,98978       147,08         
1305,0000     0,98966       146,64         
1310,0000     0,98972       146,19         
1315,0000     0,98944       145,75         
1320,0000     0,98931       145,32         
1325,0000     0,98928       144,90         
1330,0000     0,98903       144,46         
1335,0000     0,98902       144,04         
1340,0000     0,98839       143,63         
1345,0000     0,98822       143,19         
1350,0000     0,98789       142,77         
1355,0000     0,98742       142,32         
1360,0000     0,98747       141,88         
1365,0000     0,98746       141,45         
1370,0000     0,98759       141,03         
1375,0000     0,9877        140,60         
1380,0000     0,9882        140,16         
1385,0000     0,98838       139,76         
1390,0000     0,98864       139,36         
1395,0000     0,98887       138,96         
1400,0000     0,98897       138,58         
1405,0000     0,98906       138,18         
1410,0000     0,98857       137,78         
1415,0000     0,98851       137,38         
1420,0000     0,98834       136,94         
1425,0000     0,98812       136,53         
1430,0000     0,98781       136,11         
1435,0000     0,9874        135,67         
1440,0000     0,98726       135,25         
1445,0000     0,98696       134,83         
1450,0000     0,98689       134,41         
1455,0000     0,98687       133,98         
1460,0000     0,98712       133,57         
1465,0000     0,9874        133,17         
1470,0000     0,98713       132,76         
1475,0000     0,9875        132,36         
1480,0000     0,98702       131,96         
1485,0000     0,98686       131,55         
1490,0000     0,98682       131,15         
1495,0000     0,98674       130,74         
1500,0000     0,98848       130,35         
1505,0000     0,98825       129,98         
1510,0000     0,9879        129,59         
1515,0000     0,98779       129,20         
1520,0000     0,98688       128,81         
1525,0000     0,9863        128,42         
1530,0000     0,98602       128,02         
1535,0000     0,9855        127,60         
1540,0000     0,98488       127,17         
1545,0000     0,98452       126,76         
1550,0000     0,98465       126,34         
1555,0000     0,98439       125,93         
1560,0000     0,98399       125,49         
1565,0000     0,98378       125,05         
1570,0000     0,9837        124,62         
1575,0000     0,98378       124,20         
1580,0000     0,98419       123,81         
1585,0000     0,98413       123,43         
1590,0000     0,98453       123,05         
1595,0000     0,98456       122,68         
1600,0000     0,98513       122,26         
1605,0000     0,98578       121,86         
1610,0000     0,98573       121,45         
1615,0000     0,98572       121,03         
1620,0000     0,98535       120,64         
1625,0000     0,98559       120,28         
1630,0000     0,98563       119,92         
1635,0000     0,98637       119,55         
1640,0000     0,98701       119,16         
1645,0000     0,98706       118,75         
1650,0000     0,98715       118,35         
1655,0000     0,98687       117,98         
1660,0000     0,98632       117,59         
1665,0000     0,98526       117,20         
1670,0000     0,98451       116,82         
1675,0000     0,98389       116,47         
1680,0000     0,98356       116,06         
1685,0000     0,98386       115,65         
1690,0000     0,98396       115,21         
1695,0000     0,98351       114,76         
1700,0000     0,98309       114,32         
1705,0000     0,98231       113,89         
1710,0000     0,98183       113,49         
1715,0000     0,982         113,08         
1720,0000     0,98239       112,70         
1725,0000     0,98276       112,31         
1730,0000     0,98352       111,90         
1735,0000     0,98429       111,50         
1740,0000     0,98504       111,10         
1745,0000     0,98528       110,66         
1750,0000     0,98468       110,26         
1755,0000     0,9837        109,86         
1760,0000     0,98306       109,49         
1765,0000     0,98321       109,12         
1770,0000     0,98416       108,74         
1775,0000     0,98466       108,32         
1780,0000     0,98511       107,88         
1785,0000     0,98507       107,46         
1790,0000     0,98448       107,08         
1795,0000     0,98404       106,68         
1800,0000     0,98312       106,30         
1805,0000     0,98263       105,94         
1810,0000     0,98237       105,56         
1815,0000     0,98197       105,18         
1820,0000     0,98182       104,77         
1825,0000     0,9819        104,31         
1830,0000     0,98153       103,86         
1835,0000     0,98094       103,41         
1840,0000     0,97989       102,99         
1845,0000     0,97948       102,59         
1850,0000     0,97926       102,19         
1855,0000     0,97898       101,77         
1860,0000     0,97923       101,34         
1865,0000     0,97968       100,92         
1870,0000     0,98023       100,48         
1875,0000     0,9805        100,07         
1880,0000     0,98092       99,62          
1885,0000     0,98056       99,19          
1890,0000     0,97981       98,78          
1895,0000     0,97875       98,37          
1900,0000     0,97834       97,97          
1905,0000     0,97831       97,57          
1910,0000     0,97879       97,15          
1915,0000     0,97925       96,69          
1920,0000     0,97967       96,26          
1925,0000     0,97911       95,82          
1930,0000     0,9788        95,40          
1935,0000     0,97788       94,98          
1940,0000     0,97698       94,58          
1945,0000     0,97642       94,18          
1950,0000     0,97622       93,78          
1955,0000     0,97618       93,35          
1960,0000     0,97605       92,90          
1965,0000     0,97558       92,43          
1970,0000     0,97516       91,96          
1975,0000     0,97438       91,51          
1980,0000     0,97385       91,05          
1985,0000     0,97366       90,57          
1990,0000     0,97319       90,11          
1995,0000     0,97266       89,66          
2000,0000     0,97257       89,20          
2005,0000     0,97292       88,71          
2010,0000     0,97345       88,22          
2015,0000     0,9733        87,74          
2020,0000     0,97285       87,24          
2025,0000     0,97211       86,77          
2030,0000     0,97156       86,32          
2035,0000     0,97079       85,84          
2040,0000     0,96968       85,37          
2045,0000     0,96935       84,91          
2050,0000     0,96894       84,42          
2055,0000     0,96923       83,92          
2060,0000     0,96906       83,38          
2065,0000     0,9684        82,86          
2070,0000     0,96723       82,35          
2075,0000     0,96635       81,87          
2080,0000     0,96534       81,37          
2085,0000     0,96466       80,89          
2090,0000     0,96385       80,38          
2095,0000     0,96367       79,86          
2100,0000     0,96298       79,31          
2105,0000     0,96207       78,76          
2110,0000     0,96049       78,20          
2115,0000     0,95915       77,67          
2120,0000     0,95772       77,12          
2125,0000     0,9565        76,51          
2130,0000     0,955         75,95          
2135,0000     0,954         75,36          
2140,0000     0,95281       74,74          
2145,0000     0,95164       74,13          
2150,0000     0,9505        73,51          
2155,0000     0,94937       72,84          
2160,0000     0,94777       72,21          
2165,0000     0,9459        71,59          
2170,0000     0,94417       70,98          
2175,0000     0,94259       70,35          
2180,0000     0,94107       69,71          
2185,0000     0,9392        69,03          
2190,0000     0,93721       68,36          
2195,0000     0,93558       67,64          
2200,0000     0,93441       66,90          
2205,0000     0,93265       66,14          
2210,0000     0,93019       65,37          
2215,0000     0,92726       64,59          
2220,0000     0,92408       63,83          
2225,0000     0,9211        63,08          
2230,0000     0,9182        62,34          
2235,0000     0,9158        61,51          
2240,0000     0,91215       60,64          
2245,0000     0,90783       59,77          
2250,0000     0,90372       58,91          
2255,0000     0,89956       58,01          
2260,0000     0,89546       57,09          
2265,0000     0,89101       56,05          
2270,0000     0,88561       55,03          
2275,0000     0,88047       53,99          
2280,0000     0,87501       52,92          
2285,0000     0,86979       51,79          
2290,0000     0,86453       50,59          
2295,0000     0,85779       49,29          
2300,0000     0,84979       48,01          
2305,0000     0,84161       46,73          
2310,0000     0,83336       45,42          
2315,0000     0,8254        44,00          
2320,0000     0,81607       42,42          
2325,0000     0,80467       40,76          
2330,0000     0,79198       39,14          
2335,0000     0,77929       37,46          
2340,0000     0,76605       35,66          
2345,0000     0,7521        33,75          
2350,0000     0,73545       31,63          
2355,0000     0,71619       29,53          
2360,0000     0,69548       27,42          
2365,0000     0,67436       25,25          
2370,0000     0,65231       22,91          
2375,0000     0,62793       20,35          
2380,0000     0,60086       17,62          
2385,0000     0,57119       14,78          
2390,0000     0,53959       11,85          
2395,0000     0,50719       8,84           
2400,0000     0,4734        5,30           
2405,0000     0,43535       1,41           
2410,0000     0,39283       -2,53          
2415,0000     0,35067       -6,51          
2420,0000     0,30962       -11,27         
2425,0000     0,26601       -17,38         
2430,0000     0,21794       -25,06         
2435,0000     0,16815       -33,76         
2440,0000     0,12453       -45,18         
2445,0000     0,09161       -66,21         
2450,0000     0,07626       -104,61        
2455,0000     0,09032       -144,80        
2460,0000     0,12256       -168,34        
2465,0000     0,16268       179,04         
2470,0000     0,20674       170,62         
2475,0000     0,25177       164,00         
2480,0000     0,29658       158,51         
2485,0000     0,33979       153,45         
2490,0000     0,38032       149,06         
2495,0000     0,41849       144,98         
2500,0000     0,45374       141,52         
2505,0000     0,48921       138,17         
2510,0000     0,5216        134,97         
2515,0000     0,55099       132,00         
2520,0000     0,57838       129,30         
2525,0000     0,60472       126,78         
2530,0000     0,62897       124,26         
2535,0000     0,65006       121,95         
2540,0000     0,67027       119,90         
2545,0000     0,69044       117,85         
2550,0000     0,70841       115,77         
2555,0000     0,72328       113,78         
2560,0000     0,73646       112,08         
2565,0000     0,75171       110,45         
2570,0000     0,76537       108,72         
2575,0000     0,77685       107,10         
2580,0000     0,78689       105,58         
2585,0000     0,7975        104,21         
2590,0000     0,8076        102,84         
2595,0000     0,81639       101,47         
2600,0000     0,82376       100,19         
2605,0000     0,83035       99,00          
2610,0000     0,83714       97,88          
2615,0000     0,84421       96,77          
2620,0000     0,85037       95,64          
2625,0000     0,85536       94,59          
2630,0000     0,85999       93,60          
2635,0000     0,86457       92,62          
2640,0000     0,86966       91,69          
2645,0000     0,87379       90,71          
2650,0000     0,87657       89,81          
2655,0000     0,87981       88,98          
2660,0000     0,88337       88,17          
2665,0000     0,88652       87,40          
2670,0000     0,88987       86,65          
2675,0000     0,89286       85,92          
2680,0000     0,89598       85,18          
2685,0000     0,89814       84,41          
2690,0000     0,9003        83,72          
2695,0000     0,90241       83,02          
2700,0000     0,90494       82,32          
2705,0000     0,90681       81,63          
2710,0000     0,90906       80,94          
2715,0000     0,91164       80,28          
2720,0000     0,91402       79,63          
2725,0000     0,91661       78,99          
2730,0000     0,91895       78,35          
2735,0000     0,92053       77,73          
2740,0000     0,92202       77,15          
2745,0000     0,92375       76,58          
2750,0000     0,92552       76,03          
2755,0000     0,92752       75,46          
2760,0000     0,92992       74,91          
2765,0000     0,93152       74,32          
2770,0000     0,93288       73,76          
2775,0000     0,93428       73,20          
2780,0000     0,93561       72,65          
2785,0000     0,9372        72,09          
2790,0000     0,93784       71,55          
2795,0000     0,93872       71,01          
2800,0000     0,9397        70,53          
2805,0000     0,94097       70,04          
2810,0000     0,94263       69,52          
2815,0000     0,94339       69,02          
2820,0000     0,94336       68,52          
2825,0000     0,94333       68,02          
2830,0000     0,94356       67,54          
2835,0000     0,94315       67,07          
2840,0000     0,94285       66,58          
2845,0000     0,94301       66,10          
2850,0000     0,94353       65,60          
2855,0000     0,94437       65,12          
2860,0000     0,94453       64,63          
2865,0000     0,94516       64,16          
2870,0000     0,94558       63,71          
2875,0000     0,94571       63,26          
2880,0000     0,94572       62,83          
2885,0000     0,9458        62,41          
2890,0000     0,94616       62,03          
2895,0000     0,94667       61,63          
2900,0000     0,94707       61,22          
2905,0000     0,94785       60,82          
2910,0000     0,94787       60,42          
2915,0000     0,94815       60,04          
2920,0000     0,94858       59,65          
2925,0000     0,94906       59,23          
2930,0000     0,94964       58,85          
2935,0000     0,95003       58,46          
2940,0000     0,95031       58,08          
2945,0000     0,95066       57,71          
2950,0000     0,95123       57,35          
2955,0000     0,95166       56,94          
2960,0000     0,95143       56,58          
2965,0000     0,9512        56,22          
2970,0000     0,95098       55,86          
2975,0000     0,95083       55,50          
2980,0000     0,95066       55,14          
2985,0000     0,95077       54,76          
2990,0000     0,95101       54,38          
2995,0000     0,95146       54,00          
3000,0000     0,95199       53,63          
