!    02.03.2026   10:41:58 
! Ref Plane: 0,000 mm
# MHZ S MA R  50
!
1000,0000     0,99309       175,49         
1005,0000     0,99335       175,00         
1010,0000     0,99304       174,52         
1015,0000     0,99251       174,02         
1020,0000     0,99205       173,52         
1025,0000     0,99196       173,01         
1030,0000     0,99187       172,50         
1035,0000     0,99159       171,98         
1040,0000     0,99151       171,48         
1045,0000     0,9913        170,97         
1050,0000     0,9911        170,46         
1055,0000     0,99072       169,97         
1060,0000     0,99053       169,46         
1065,0000     0,99005       168,95         
1070,0000     0,98982       168,42         
1075,0000     0,98968       167,92         
1080,0000     0,98944       167,40         
1085,0000     0,98945       166,86         
1090,0000     0,98986       166,34         
1095,0000     0,99046       165,85         
1100,0000     0,99108       165,34         
1105,0000     0,99153       164,88         
1110,0000     0,99201       164,41         
1115,0000     0,99205       163,98         
1120,0000     0,99246       163,53         
1125,0000     0,99239       163,10         
1130,0000     0,99235       162,65         
1135,0000     0,99196       162,24         
1140,0000     0,99211       161,80         
1145,0000     0,99157       161,35         
1150,0000     0,9911        160,92         
1155,0000     0,9908        160,45         
1160,0000     0,99042       160,00         
1165,0000     0,99044       159,53         
1170,0000     0,99018       159,08         
1175,0000     0,98985       158,63         
1180,0000     0,99001       158,16         
1185,0000     0,98994       157,70         
1190,0000     0,99005       157,25         
1195,0000     0,98966       156,78         
1200,0000     0,9896        156,31         
1205,0000     0,98938       155,84         
1210,0000     0,98935       155,36         
1215,0000     0,98952       154,89         
1220,0000     0,98946       154,40         
1225,0000     0,98955       153,92         
1230,0000     0,99015       153,44         
1235,0000     0,99041       152,97         
1240,0000     0,99113       152,51         
1245,0000     0,99132       152,09         
1250,0000     0,9913        151,67         
1255,0000     0,99165       151,23         
1260,0000     0,99167       150,83         
1265,0000     0,99152       150,42         
1270,0000     0,99136       149,99         
1275,0000     0,99123       149,56         
1280,0000     0,99115       149,14         
1285,0000     0,99087       148,71         
1290,0000     0,9907        148,28         
1295,0000     0,99032       147,85         
1300,0000     0,99007       147,41         
1305,0000     0,98992       146,97         
1310,0000     0,98986       146,53         
1315,0000     0,98973       146,08         
1320,0000     0,9896        145,65         
1325,0000     0,98947       145,25         
1330,0000     0,98899       144,79         
1335,0000     0,9891        144,38         
1340,0000     0,98836       143,95         
1345,0000     0,98812       143,53         
1350,0000     0,98781       143,09         
1355,0000     0,98739       142,66         
1360,0000     0,98723       142,22         
1365,0000     0,98742       141,80         
1370,0000     0,98737       141,38         
1375,0000     0,98767       140,95         
1380,0000     0,98809       140,51         
1385,0000     0,98839       140,12         
1390,0000     0,98874       139,71         
1395,0000     0,98906       139,33         
1400,0000     0,9891        138,94         
1405,0000     0,98926       138,54         
1410,0000     0,98878       138,13         
1415,0000     0,98889       137,74         
1420,0000     0,98867       137,30         
1425,0000     0,98847       136,89         
1430,0000     0,98822       136,46         
1435,0000     0,9879        136,03         
1440,0000     0,98792       135,60         
1445,0000     0,98744       135,18         
1450,0000     0,98741       134,75         
1455,0000     0,98731       134,33         
1460,0000     0,98772       133,92         
1465,0000     0,98789       133,52         
1470,0000     0,98762       133,10         
1475,0000     0,98797       132,70         
1480,0000     0,98773       132,31         
1485,0000     0,98762       131,91         
1490,0000     0,98743       131,49         
1495,0000     0,98731       131,09         
1500,0000     0,98912       130,70         
1505,0000     0,98907       130,33         
1510,0000     0,98866       129,93         
1515,0000     0,98835       129,55         
1520,0000     0,9876        129,16         
1525,0000     0,98701       128,77         
1530,0000     0,98666       128,38         
1535,0000     0,98626       127,94         
1540,0000     0,98555       127,53         
1545,0000     0,98523       127,11         
1550,0000     0,98519       126,69         
1555,0000     0,98503       126,27         
1560,0000     0,98441       125,84         
1565,0000     0,98448       125,39         
1570,0000     0,98447       124,97         
1575,0000     0,98463       124,55         
1580,0000     0,98494       124,15         
1585,0000     0,98481       123,77         
1590,0000     0,98496       123,39         
1595,0000     0,98541       123,02         
1600,0000     0,98584       122,59         
1605,0000     0,98638       122,20         
1610,0000     0,98629       121,79         
1615,0000     0,98623       121,37         
1620,0000     0,98588       120,98         
1625,0000     0,9862        120,63         
1630,0000     0,98633       120,27         
1635,0000     0,98681       119,90         
1640,0000     0,98783       119,51         
1645,0000     0,98765       119,10         
1650,0000     0,98775       118,72         
1655,0000     0,98737       118,34         
1660,0000     0,98691       117,94         
1665,0000     0,98582       117,57         
1670,0000     0,98501       117,19         
1675,0000     0,98447       116,84         
1680,0000     0,98409       116,44         
1685,0000     0,98434       116,03         
1690,0000     0,98446       115,60         
1695,0000     0,98434       115,15         
1700,0000     0,98376       114,72         
1705,0000     0,98317       114,30         
1710,0000     0,98268       113,88         
1715,0000     0,98277       113,48         
1720,0000     0,98307       113,10         
1725,0000     0,98348       112,72         
1730,0000     0,98436       112,31         
1735,0000     0,98496       111,91         
1740,0000     0,9858        111,50         
1745,0000     0,98603       111,08         
1750,0000     0,98554       110,68         
1755,0000     0,98484       110,28         
1760,0000     0,9839        109,90         
1765,0000     0,98409       109,55         
1770,0000     0,98505       109,16         
1775,0000     0,9856        108,76         
1780,0000     0,98609       108,33         
1785,0000     0,98602       107,92         
1790,0000     0,98557       107,52         
1795,0000     0,98507       107,14         
1800,0000     0,98418       106,75         
1805,0000     0,98368       106,39         
1810,0000     0,98352       106,03         
1815,0000     0,98313       105,65         
1820,0000     0,98332       105,25         
1825,0000     0,98324       104,78         
1830,0000     0,98273       104,33         
1835,0000     0,98228       103,91         
1840,0000     0,98149       103,47         
1845,0000     0,98106       103,06         
1850,0000     0,98063       102,66         
1855,0000     0,98049       102,26         
1860,0000     0,98085       101,84         
1865,0000     0,98132       101,41         
1870,0000     0,98183       100,97         
1875,0000     0,982         100,56         
1880,0000     0,9824        100,14         
1885,0000     0,98203       99,71          
1890,0000     0,98109       99,30          
1895,0000     0,98017       98,90          
1900,0000     0,97974       98,52          
1905,0000     0,97968       98,12          
1910,0000     0,98029       97,72          
1915,0000     0,9809        97,27          
1920,0000     0,98121       96,85          
1925,0000     0,98073       96,43          
1930,0000     0,98052       96,01          
1935,0000     0,97998       95,60          
1940,0000     0,97918       95,20          
1945,0000     0,97851       94,82          
1950,0000     0,97825       94,41          
1955,0000     0,97801       93,99          
1960,0000     0,97802       93,55          
1965,0000     0,9776        93,09          
1970,0000     0,97716       92,64          
1975,0000     0,97637       92,19          
1980,0000     0,97579       91,73          
1985,0000     0,97533       91,29          
1990,0000     0,97493       90,84          
1995,0000     0,97467       90,42          
2000,0000     0,97473       89,95          
2005,0000     0,97508       89,47          
2010,0000     0,97549       89,00          
2015,0000     0,97541       88,53          
2020,0000     0,97504       88,06          
2025,0000     0,97473       87,61          
2030,0000     0,9742        87,14          
2035,0000     0,97306       86,67          
2040,0000     0,97219       86,23          
2045,0000     0,97189       85,78          
2050,0000     0,97188       85,31          
2055,0000     0,97217       84,82          
2060,0000     0,97191       84,31          
2065,0000     0,97158       83,80          
2070,0000     0,97054       83,33          
2075,0000     0,96988       82,85          
2080,0000     0,9689        82,35          
2085,0000     0,9683        81,86          
2090,0000     0,96751       81,39          
2095,0000     0,96692       80,90          
2100,0000     0,96609       80,37          
2105,0000     0,96511       79,86          
2110,0000     0,96393       79,33          
2115,0000     0,96238       78,83          
2120,0000     0,96114       78,29          
2125,0000     0,95962       77,73          
2130,0000     0,95839       77,20          
2135,0000     0,9573        76,63          
2140,0000     0,95619       76,06          
2145,0000     0,95535       75,49          
2150,0000     0,95454       74,89          
2155,0000     0,95371       74,26          
2160,0000     0,95221       73,66          
2165,0000     0,95047       73,08          
2170,0000     0,94906       72,50          
2175,0000     0,94755       71,89          
2180,0000     0,94602       71,29          
2185,0000     0,94445       70,67          
2190,0000     0,94257       70,01          
2195,0000     0,94064       69,34          
2200,0000     0,93953       68,68          
2205,0000     0,93838       67,98          
2210,0000     0,93691       67,25          
2215,0000     0,934         66,50          
2220,0000     0,93096       65,77          
2225,0000     0,92803       65,11          
2230,0000     0,92584       64,40          
2235,0000     0,92377       63,63          
2240,0000     0,92042       62,79          
2245,0000     0,91671       61,98          
2250,0000     0,91263       61,13          
2255,0000     0,90857       60,29          
2260,0000     0,90441       59,40          
2265,0000     0,8997        58,46          
2270,0000     0,89483       57,49          
2275,0000     0,88949       56,50          
2280,0000     0,88394       55,50          
2285,0000     0,87828       54,45          
2290,0000     0,87261       53,37          
2295,0000     0,86623       52,23          
2300,0000     0,85927       51,04          
2305,0000     0,85096       49,82          
2310,0000     0,84235       48,64          
2315,0000     0,8353        47,37          
2320,0000     0,82634       45,86          
2325,0000     0,81489       44,31          
2330,0000     0,80143       42,74          
2335,0000     0,78805       41,26          
2340,0000     0,77563       39,60          
2345,0000     0,76088       37,76          
2350,0000     0,74317       35,83          
2355,0000     0,72291       33,91          
2360,0000     0,7021        32,02          
2365,0000     0,68012       29,91          
2370,0000     0,65516       27,64          
2375,0000     0,62609       25,25          
2380,0000     0,59412       22,96          
2385,0000     0,56073       20,69          
2390,0000     0,52489       18,38          
2395,0000     0,48835       16,16          
2400,0000     0,45053       13,74          
2405,0000     0,40837       11,10          
2410,0000     0,36333       8,83           
2415,0000     0,31764       6,80           
2420,0000     0,27261       4,69           
2425,0000     0,22305       2,26           
2430,0000     0,1706        1,32           
2435,0000     0,1207        2,78           
2440,0000     0,07232       8,52           
2445,0000     0,0293        42,30          
2450,0000     0,04485       130,18         
2455,0000     0,09668       144,21         
2460,0000     0,14993       145,89         
2465,0000     0,20368       144,80         
2470,0000     0,2565        142,66         
2475,0000     0,30717       139,83         
2480,0000     0,35338       137,09         
2485,0000     0,39952       134,44         
2490,0000     0,44268       131,45         
2495,0000     0,48123       128,64         
2500,0000     0,51721       126,01         
2505,0000     0,55104       123,55         
2510,0000     0,58331       121,15         
2515,0000     0,61319       118,71         
2520,0000     0,63929       116,35         
2525,0000     0,66174       114,21         
2530,0000     0,6827        112,26         
2535,0000     0,70304       110,43         
2540,0000     0,72193       108,64         
2545,0000     0,73979       106,85         
2550,0000     0,75431       105,08         
2555,0000     0,76743       103,51         
2560,0000     0,77966       102,01         
2565,0000     0,79237       100,60         
2570,0000     0,80425       99,16          
2575,0000     0,81454       97,74          
2580,0000     0,82336       96,41          
2585,0000     0,83196       95,18          
2590,0000     0,84029       93,99          
2595,0000     0,84728       92,83          
2600,0000     0,85369       91,70          
2605,0000     0,85862       90,62          
2610,0000     0,86319       89,62          
2615,0000     0,8678        88,72          
2620,0000     0,87277       87,78          
2625,0000     0,87675       86,92          
2630,0000     0,88098       86,07          
2635,0000     0,88494       85,21          
2640,0000     0,88877       84,39          
2645,0000     0,8921        83,59          
2650,0000     0,89505       82,81          
2655,0000     0,898         82,08          
2660,0000     0,90124       81,34          
2665,0000     0,90392       80,64          
2670,0000     0,90625       79,95          
2675,0000     0,90867       79,32          
2680,0000     0,91124       78,65          
2685,0000     0,91316       77,95          
2690,0000     0,91491       77,31          
2695,0000     0,91646       76,68          
2700,0000     0,91823       76,06          
2705,0000     0,91994       75,40          
2710,0000     0,92146       74,79          
2715,0000     0,92367       74,19          
2720,0000     0,92565       73,61          
2725,0000     0,92798       73,03          
2730,0000     0,93026       72,43          
2735,0000     0,93192       71,87          
2740,0000     0,93334       71,29          
2745,0000     0,93435       70,75          
2750,0000     0,93542       70,22          
2755,0000     0,93676       69,69          
2760,0000     0,93836       69,18          
2765,0000     0,93984       68,65          
2770,0000     0,94075       68,11          
2775,0000     0,94149       67,59          
2780,0000     0,94229       67,09          
2785,0000     0,94374       66,58          
2790,0000     0,94416       66,08          
2795,0000     0,94505       65,60          
2800,0000     0,94587       65,14          
2805,0000     0,94681       64,66          
2810,0000     0,94792       64,19          
2815,0000     0,94863       63,75          
2820,0000     0,94858       63,27          
2825,0000     0,94845       62,82          
2830,0000     0,94836       62,36          
2835,0000     0,94777       61,91          
2840,0000     0,94742       61,45          
2845,0000     0,94747       61,00          
2850,0000     0,94766       60,55          
2855,0000     0,94817       60,09          
2860,0000     0,94853       59,65          
2865,0000     0,94921       59,22          
2870,0000     0,94971       58,80          
2875,0000     0,95016       58,37          
2880,0000     0,95029       57,95          
2885,0000     0,95064       57,54          
2890,0000     0,95075       57,14          
2895,0000     0,95105       56,75          
2900,0000     0,9513        56,36          
2905,0000     0,95173       55,97          
2910,0000     0,95147       55,60          
2915,0000     0,95187       55,24          
2920,0000     0,95219       54,85          
2925,0000     0,95263       54,46          
2930,0000     0,95313       54,08          
2935,0000     0,9536        53,72          
2940,0000     0,95394       53,35          
2945,0000     0,95452       52,97          
2950,0000     0,95485       52,61          
2955,0000     0,95502       52,20          
2960,0000     0,95483       51,84          
2965,0000     0,95423       51,49          
2970,0000     0,95404       51,16          
2975,0000     0,95393       50,82          
2980,0000     0,95379       50,45          
2985,0000     0,9537        50,08          
2990,0000     0,95399       49,69          
2995,0000     0,95432       49,31          
3000,0000     0,95468       48,93          
