!    02.03.2026   10:43:13 
! Ref Plane: 0,000 mm
# MHZ S MA R  50
!
1000,0000     0,99222       175,92         
1005,0000     0,99237       175,44         
1010,0000     0,99204       174,96         
1015,0000     0,99145       174,46         
1020,0000     0,99089       173,98         
1025,0000     0,99065       173,49         
1030,0000     0,99038       172,98         
1035,0000     0,99033       172,47         
1040,0000     0,99027       171,98         
1045,0000     0,98995       171,48         
1050,0000     0,98978       170,99         
1055,0000     0,98938       170,50         
1060,0000     0,9891        170,00         
1065,0000     0,98875       169,50         
1070,0000     0,98859       168,98         
1075,0000     0,98837       168,49         
1080,0000     0,98828       167,98         
1085,0000     0,98827       167,44         
1090,0000     0,98873       166,93         
1095,0000     0,98949       166,44         
1100,0000     0,9901        165,94         
1105,0000     0,99065       165,49         
1110,0000     0,99103       165,02         
1115,0000     0,99112       164,59         
1120,0000     0,99131       164,16         
1125,0000     0,99141       163,74         
1130,0000     0,99125       163,29         
1135,0000     0,99101       162,89         
1140,0000     0,99093       162,45         
1145,0000     0,99044       162,03         
1150,0000     0,98996       161,59         
1155,0000     0,98963       161,14         
1160,0000     0,98931       160,71         
1165,0000     0,98935       160,25         
1170,0000     0,98909       159,80         
1175,0000     0,98898       159,35         
1180,0000     0,98928       158,91         
1185,0000     0,98927       158,46         
1190,0000     0,9893        158,00         
1195,0000     0,98899       157,54         
1200,0000     0,98894       157,08         
1205,0000     0,98882       156,62         
1210,0000     0,98896       156,15         
1215,0000     0,98902       155,68         
1220,0000     0,98897       155,19         
1225,0000     0,9892        154,72         
1230,0000     0,98966       154,24         
1235,0000     0,99001       153,77         
1240,0000     0,99058       153,32         
1245,0000     0,99095       152,90         
1250,0000     0,99086       152,48         
1255,0000     0,99144       152,06         
1260,0000     0,99126       151,65         
1265,0000     0,99107       151,25         
1270,0000     0,99089       150,84         
1275,0000     0,99087       150,41         
1280,0000     0,99075       150,00         
1285,0000     0,99051       149,58         
1290,0000     0,99027       149,16         
1295,0000     0,9899        148,75         
1300,0000     0,98961       148,31         
1305,0000     0,98962       147,88         
1310,0000     0,98966       147,46         
1315,0000     0,98935       147,01         
1320,0000     0,98939       146,60         
1325,0000     0,9894        146,20         
1330,0000     0,98902       145,76         
1335,0000     0,98894       145,36         
1340,0000     0,98848       144,93         
1345,0000     0,98827       144,52         
1350,0000     0,98802       144,10         
1355,0000     0,9876        143,67         
1360,0000     0,98782       143,24         
1365,0000     0,98785       142,82         
1370,0000     0,98781       142,40         
1375,0000     0,98829       141,98         
1380,0000     0,98867       141,55         
1385,0000     0,98893       141,18         
1390,0000     0,98921       140,77         
1395,0000     0,98943       140,38         
1400,0000     0,98955       139,99         
1405,0000     0,9896        139,61         
1410,0000     0,98915       139,20         
1415,0000     0,98913       138,82         
1420,0000     0,98892       138,39         
1425,0000     0,98874       137,99         
1430,0000     0,98852       137,58         
1435,0000     0,98809       137,16         
1440,0000     0,98795       136,74         
1445,0000     0,98759       136,34         
1450,0000     0,98756       135,92         
1455,0000     0,98743       135,50         
1460,0000     0,98774       135,11         
1465,0000     0,98803       134,71         
1470,0000     0,98764       134,30         
1475,0000     0,9879        133,94         
1480,0000     0,98794       133,54         
1485,0000     0,98767       133,16         
1490,0000     0,9876        132,76         
1495,0000     0,98737       132,37         
1500,0000     0,98943       131,99         
1505,0000     0,98912       131,64         
1510,0000     0,98878       131,26         
1515,0000     0,9887        130,88         
1520,0000     0,98791       130,51         
1525,0000     0,98744       130,14         
1530,0000     0,98705       129,75         
1535,0000     0,98645       129,35         
1540,0000     0,98609       128,93         
1545,0000     0,98557       128,52         
1550,0000     0,98548       128,13         
1555,0000     0,98534       127,71         
1560,0000     0,98492       127,30         
1565,0000     0,98495       126,88         
1570,0000     0,98502       126,46         
1575,0000     0,98517       126,06         
1580,0000     0,98548       125,67         
1585,0000     0,98553       125,30         
1590,0000     0,98582       124,94         
1595,0000     0,98619       124,60         
1600,0000     0,9867        124,19         
1605,0000     0,98728       123,80         
1610,0000     0,98729       123,42         
1615,0000     0,98742       123,01         
1620,0000     0,98719       122,63         
1625,0000     0,98733       122,29         
1630,0000     0,98749       121,95         
1635,0000     0,98812       121,59         
1640,0000     0,98868       121,22         
1645,0000     0,98895       120,84         
1650,0000     0,98903       120,47         
1655,0000     0,98896       120,12         
1660,0000     0,98852       119,74         
1665,0000     0,98766       119,37         
1670,0000     0,98664       119,01         
1675,0000     0,98598       118,67         
1680,0000     0,98561       118,28         
1685,0000     0,98583       117,91         
1690,0000     0,98592       117,49         
1695,0000     0,98599       117,05         
1700,0000     0,98544       116,64         
1705,0000     0,98476       116,23         
1710,0000     0,98447       115,82         
1715,0000     0,98479       115,44         
1720,0000     0,98478       115,08         
1725,0000     0,98527       114,72         
1730,0000     0,98611       114,34         
1735,0000     0,9869        113,95         
1740,0000     0,98777       113,57         
1745,0000     0,98802       113,15         
1750,0000     0,9875        112,77         
1755,0000     0,98656       112,39         
1760,0000     0,98598       112,03         
1765,0000     0,98593       111,70         
1770,0000     0,98684       111,33         
1775,0000     0,98753       110,97         
1780,0000     0,98801       110,57         
1785,0000     0,98839       110,18         
1790,0000     0,9879        109,80         
1795,0000     0,98731       109,43         
1800,0000     0,98643       109,08         
1805,0000     0,98579       108,75         
1810,0000     0,98555       108,41         
1815,0000     0,9853        108,07         
1820,0000     0,98515       107,70         
1825,0000     0,98518       107,27         
1830,0000     0,98509       106,86         
1835,0000     0,98474       106,43         
1840,0000     0,98379       106,04         
1845,0000     0,98343       105,66         
1850,0000     0,9831        105,29         
1855,0000     0,98299       104,92         
1860,0000     0,98343       104,53         
1865,0000     0,98396       104,14         
1870,0000     0,98477       103,74         
1875,0000     0,985         103,35         
1880,0000     0,98551       102,95         
1885,0000     0,98525       102,55         
1890,0000     0,98435       102,18         
1895,0000     0,98349       101,81         
1900,0000     0,98313       101,46         
1905,0000     0,9831        101,10         
1910,0000     0,98374       100,72         
1915,0000     0,98418       100,31         
1920,0000     0,98479       99,92          
1925,0000     0,98435       99,53          
1930,0000     0,98423       99,15          
1935,0000     0,98356       98,78          
1940,0000     0,98289       98,42          
1945,0000     0,98246       98,08          
1950,0000     0,98225       97,71          
1955,0000     0,98228       97,33          
1960,0000     0,98226       96,94          
1965,0000     0,982         96,52          
1970,0000     0,98154       96,10          
1975,0000     0,98092       95,70          
1980,0000     0,98065       95,28          
1985,0000     0,98022       94,88          
1990,0000     0,98012       94,48          
1995,0000     0,97985       94,10          
2000,0000     0,98011       93,68          
2005,0000     0,98036       93,25          
2010,0000     0,98086       92,84          
2015,0000     0,98095       92,43          
2020,0000     0,98105       92,01          
2025,0000     0,9808        91,61          
2030,0000     0,98044       91,20          
2035,0000     0,97973       90,80          
2040,0000     0,97913       90,41          
2045,0000     0,97887       90,01          
2050,0000     0,97873       89,60          
2055,0000     0,97935       89,18          
2060,0000     0,97959       88,73          
2065,0000     0,9793        88,29          
2070,0000     0,97834       87,86          
2075,0000     0,97787       87,45          
2080,0000     0,97695       87,06          
2085,0000     0,97672       86,66          
2090,0000     0,97619       86,24          
2095,0000     0,97583       85,81          
2100,0000     0,97521       85,36          
2105,0000     0,97441       84,94          
2110,0000     0,97351       84,48          
2115,0000     0,97241       84,06          
2120,0000     0,97117       83,61          
2125,0000     0,96995       83,13          
2130,0000     0,96876       82,69          
2135,0000     0,96815       82,21          
2140,0000     0,96722       81,73          
2145,0000     0,96648       81,28          
2150,0000     0,96586       80,80          
2155,0000     0,9655        80,29          
2160,0000     0,96462       79,81          
2165,0000     0,96366       79,34          
2170,0000     0,9627        78,88          
2175,0000     0,9619        78,41          
2180,0000     0,96114       77,93          
2185,0000     0,95992       77,43          
2190,0000     0,95862       76,94          
2195,0000     0,95796       76,42          
2200,0000     0,95785       75,88          
2205,0000     0,95687       75,31          
2210,0000     0,95587       74,74          
2215,0000     0,95417       74,20          
2220,0000     0,95279       73,66          
2225,0000     0,95137       73,12          
2230,0000     0,94976       72,56          
2235,0000     0,94822       71,99          
2240,0000     0,94625       71,36          
2245,0000     0,94356       70,74          
2250,0000     0,94102       70,12          
2255,0000     0,93824       69,47          
2260,0000     0,9351        68,81          
2265,0000     0,9318        68,09          
2270,0000     0,92811       67,39          
2275,0000     0,92447       66,67          
2280,0000     0,92077       65,92          
2285,0000     0,91722       65,12          
2290,0000     0,91321       64,35          
2295,0000     0,90882       63,52          
2300,0000     0,90392       62,66          
2305,0000     0,89823       61,80          
2310,0000     0,89233       60,92          
2315,0000     0,88661       59,99          
2320,0000     0,87971       58,94          
2325,0000     0,87101       57,89          
2330,0000     0,86181       56,83          
2335,0000     0,85222       55,74          
2340,0000     0,84241       54,55          
2345,0000     0,83078       53,27          
2350,0000     0,8165        51,95          
2355,0000     0,80083       50,70          
2360,0000     0,78465       49,41          
2365,0000     0,76594       48,00          
2370,0000     0,74479       46,58          
2375,0000     0,72067       45,09          
2380,0000     0,69331       43,63          
2385,0000     0,66333       42,26          
2390,0000     0,63037       40,91          
2395,0000     0,5943        39,77          
2400,0000     0,55478       38,87          
2405,0000     0,51306       38,31          
2410,0000     0,46943       38,38          
2415,0000     0,42396       39,01          
2420,0000     0,37481       40,97          
2425,0000     0,32976       45,46          
2430,0000     0,29406       52,48          
2435,0000     0,27104       62,02          
2440,0000     0,26582       73,12          
2445,0000     0,27804       83,40          
2450,0000     0,30321       91,88          
2455,0000     0,33958       98,02          
2460,0000     0,38252       101,74         
2465,0000     0,42765       103,58         
2470,0000     0,47045       104,13         
2475,0000     0,51101       104,09         
2480,0000     0,54952       103,54         
2485,0000     0,58489       102,62         
2490,0000     0,61635       101,59         
2495,0000     0,64565       100,54         
2500,0000     0,67268       99,43          
2505,0000     0,6988        98,28          
2510,0000     0,72263       96,97          
2515,0000     0,74273       95,69          
2520,0000     0,76112       94,50          
2525,0000     0,77807       93,39          
2530,0000     0,79359       92,23          
2535,0000     0,80765       91,13          
2540,0000     0,82079       90,07          
2545,0000     0,83324       88,98          
2550,0000     0,84401       87,85          
2555,0000     0,85301       86,78          
2560,0000     0,8603        85,78          
2565,0000     0,86844       84,87          
2570,0000     0,87616       83,90          
2575,0000     0,88299       82,97          
2580,0000     0,88874       82,06          
2585,0000     0,89417       81,22          
2590,0000     0,89907       80,41          
2595,0000     0,90299       79,64          
2600,0000     0,9066        78,89          
2605,0000     0,90936       78,17          
2610,0000     0,91237       77,52          
2615,0000     0,91542       76,88          
2620,0000     0,91886       76,22          
2625,0000     0,92152       75,58          
2630,0000     0,92423       74,95          
2635,0000     0,92662       74,30          
2640,0000     0,92856       73,68          
2645,0000     0,92993       73,08          
2650,0000     0,93093       72,53          
2655,0000     0,93259       72,00          
2660,0000     0,93444       71,48          
2665,0000     0,93583       70,98          
2670,0000     0,93734       70,48          
2675,0000     0,93889       70,00          
2680,0000     0,94005       69,48          
2685,0000     0,94064       68,97          
2690,0000     0,94139       68,49          
2695,0000     0,94213       68,00          
2700,0000     0,9429        67,54          
2705,0000     0,944         67,06          
2710,0000     0,94509       66,57          
2715,0000     0,94682       66,09          
2720,0000     0,94804       65,62          
2725,0000     0,94975       65,13          
2730,0000     0,95128       64,66          
2735,0000     0,9518        64,20          
2740,0000     0,95241       63,74          
2745,0000     0,95288       63,32          
2750,0000     0,95352       62,90          
2755,0000     0,9542        62,48          
2760,0000     0,95573       62,07          
2765,0000     0,95667       61,63          
2770,0000     0,95729       61,17          
2775,0000     0,9576        60,72          
2780,0000     0,95765       60,29          
2785,0000     0,95817       59,89          
2790,0000     0,95821       59,49          
2795,0000     0,9586        59,08          
2800,0000     0,9595        58,71          
2805,0000     0,96032       58,32          
2810,0000     0,96096       57,91          
2815,0000     0,96137       57,53          
2820,0000     0,96075       57,14          
2825,0000     0,96031       56,75          
2830,0000     0,95991       56,35          
2835,0000     0,95893       55,97          
2840,0000     0,95831       55,59          
2845,0000     0,95813       55,22          
2850,0000     0,9584        54,83          
2855,0000     0,95868       54,41          
2860,0000     0,95878       54,02          
2865,0000     0,95906       53,64          
2870,0000     0,95925       53,27          
2875,0000     0,95913       52,90          
2880,0000     0,95892       52,54          
2885,0000     0,95862       52,20          
2890,0000     0,95845       51,87          
2895,0000     0,9587        51,55          
2900,0000     0,959         51,22          
2905,0000     0,95933       50,86          
2910,0000     0,95909       50,53          
2915,0000     0,95949       50,22          
2920,0000     0,95964       49,87          
2925,0000     0,95988       49,51          
2930,0000     0,95997       49,18          
2935,0000     0,9599        48,86          
2940,0000     0,96023       48,56          
2945,0000     0,96091       48,23          
2950,0000     0,96143       47,91          
2955,0000     0,96152       47,56          
2960,0000     0,96146       47,25          
2965,0000     0,96125       46,92          
2970,0000     0,96102       46,61          
2975,0000     0,9606        46,29          
2980,0000     0,96057       45,96          
2985,0000     0,96055       45,62          
2990,0000     0,96061       45,26          
2995,0000     0,96089       44,91          
3000,0000     0,96139       44,55          
